 time            v(out)          time            v(outpl)       
 0.00000000e+00  9.00008293e-01  0.00000000e+00  8.67521731e-01 
 1.00000000e-07  9.00008292e-01  1.00000000e-07  8.67521729e-01 
 2.00000000e-07  9.00008291e-01  2.00000000e-07  8.67521728e-01 
 4.00000000e-07  9.00008289e-01  4.00000000e-07  8.67521726e-01 
 8.00000000e-07  9.00008291e-01  8.00000000e-07  8.67521726e-01 
 1.60000000e-06  9.00008297e-01  1.60000000e-06  8.67521728e-01 
 3.20000000e-06  9.00008316e-01  3.20000000e-06  8.67521729e-01 
 6.40000000e-06  9.00008327e-01  6.40000000e-06  8.67521723e-01 
 1.28000000e-05  9.00015183e-01  1.28000000e-05  8.67529300e-01 
 2.56000000e-05  9.00036189e-01  2.56000000e-05  8.67552134e-01 
 5.12000000e-05  9.00072172e-01  5.12000000e-05  8.67591187e-01 
 1.00718017e-04  9.00147129e-01  1.00718017e-04  8.67672671e-01 
 1.99754051e-04  9.00291753e-01  1.99754051e-04  8.67829841e-01 
 3.97826119e-04  9.00584884e-01  3.97826119e-04  8.68148580e-01 
 7.93970255e-04  9.01158198e-01  7.93970255e-04  8.68773105e-01 
 1.58625853e-03  9.02247691e-01  1.58625853e-03  8.69962771e-01 
 2.58625853e-03  9.03415133e-01  2.58625853e-03  8.71242270e-01 
 3.58625853e-03  9.04253246e-01  3.58625853e-03  8.72163716e-01 
 4.58625853e-03  9.04672548e-01  4.58625853e-03  8.72625734e-01 
 5.58625853e-03  9.04637582e-01  5.58625853e-03  8.72587003e-01 
 6.58625853e-03  9.04145363e-01  6.58625853e-03  8.72044753e-01 
 7.58625853e-03  9.03251669e-01  7.58625853e-03  8.71062472e-01 
 8.58625853e-03  9.02038303e-01  8.58625853e-03  8.69733609e-01 
 9.58625853e-03  9.00629818e-01  9.58625853e-03  8.68197386e-01 
 1.05862585e-02  8.99155696e-01  1.05862585e-02  8.66596741e-01 
 1.15862585e-02  8.97764336e-01  1.15862585e-02  8.65092079e-01 
 1.25862585e-02  8.96584920e-01  1.25862585e-02  8.63821164e-01 
 1.35862585e-02  8.95741105e-01  1.35862585e-02  8.62914217e-01 
 1.45862585e-02  8.95313105e-01  1.45862585e-02  8.62455007e-01 
 1.55862585e-02  8.95351907e-01  1.55862585e-02  8.62496513e-01 
 1.65862585e-02  8.95847123e-01  1.65862585e-02  8.63028011e-01 
 1.75862585e-02  8.96753205e-01  1.75862585e-02  8.64002082e-01 
 1.85862585e-02  8.97971643e-01  1.85862585e-02  8.65315866e-01 
 1.95862585e-02  8.99387948e-01  1.95862585e-02  8.66848482e-01 
 2.05862585e-02  9.00858431e-01  2.05862585e-02  8.68446518e-01 
 2.15862585e-02  9.02247667e-01  2.15862585e-02  8.69962747e-01 
 2.25862585e-02  9.03415190e-01  2.25862585e-02  8.71242291e-01 
 2.35862585e-02  9.04253222e-01  2.35862585e-02  8.72163682e-01 
 2.45862585e-02  9.04672595e-01  2.45862585e-02  8.72625767e-01 
 2.55862585e-02  9.04637501e-01  2.55862585e-02  8.72586971e-01 
 2.65862585e-02  9.04145379e-01  2.65862585e-02  8.72044783e-01 
 2.75862585e-02  9.03251644e-01  2.75862585e-02  8.71062441e-01 
 2.85862585e-02  9.02038321e-01  2.85862585e-02  8.69733642e-01 
 2.95862585e-02  9.00629756e-01  2.95862585e-02  8.68197355e-01 
 3.05862585e-02  8.99155702e-01  3.05862585e-02  8.66596773e-01 
 3.15862585e-02  8.97764336e-01  3.15862585e-02  8.65092048e-01 
 3.25862585e-02  8.96584966e-01  3.25862585e-02  8.63821195e-01 
 3.35862585e-02  8.95741085e-01  3.35862585e-02  8.62914186e-01 
 3.45862585e-02  8.95313155e-01  3.45862585e-02  8.62455040e-01 
 3.55862585e-02  8.95351847e-01  3.55862585e-02  8.62496482e-01 
 3.65862585e-02  8.95847178e-01  3.65862585e-02  8.63028042e-01 
 3.75862585e-02  8.96753154e-01  3.75862585e-02  8.64002050e-01 
 3.85862585e-02  8.97971709e-01  3.85862585e-02  8.65315897e-01 
 3.95862585e-02  8.99387903e-01  3.95862585e-02  8.66848451e-01 
 4.05862585e-02  9.00858491e-01  4.05862585e-02  8.68446549e-01 
 4.15862585e-02  9.02247630e-01  4.15862585e-02  8.69962715e-01 
 4.25862585e-02  9.03415235e-01  4.25862585e-02  8.71242322e-01 
 4.35862585e-02  9.04253203e-01  4.35862585e-02  8.72163653e-01 
 4.45862585e-02  9.04672590e-01  4.45862585e-02  8.72625799e-01 
 4.55862585e-02  9.04637479e-01  4.55862585e-02  8.72586939e-01 
 4.65862585e-02  9.04145447e-01  4.65862585e-02  8.72044815e-01 
 4.75862585e-02  9.03251576e-01  4.75862585e-02  8.71062411e-01 
 4.85862585e-02  9.02038366e-01  4.85862585e-02  8.69733672e-01 
 4.95862585e-02  9.00629724e-01  4.95862585e-02  8.68197325e-01 
 5.00000000e-02  9.00018495e-01  5.00000000e-02  8.67532807e-01 
 5.01000000e-02  8.99871346e-01  5.01000000e-02  8.67372943e-01 
 5.03000000e-02  8.99576095e-01  5.03000000e-02  8.67052484e-01 
 5.07000000e-02  8.98991430e-01  5.07000000e-02  8.66418724e-01 
 5.15000000e-02  8.97877029e-01  5.15000000e-02  8.65213736e-01 
 5.25000000e-02  8.96675713e-01  5.25000000e-02  8.63918837e-01 
 5.35000000e-02  8.95797681e-01  5.35000000e-02  8.62975009e-01 
 5.45000000e-02  8.95332693e-01  5.45000000e-02  8.62476014e-01 
 5.55000000e-02  8.95329376e-01  5.55000000e-02  8.62472405e-01 
 5.65000000e-02  8.95787978e-01  5.65000000e-02  8.62964439e-01 
 5.75000000e-02  8.96660394e-01  5.75000000e-02  8.63902243e-01 
 5.85000000e-02  8.97857650e-01  5.85000000e-02  8.65192744e-01 
 5.95000000e-02  8.99260853e-01  5.95000000e-02  8.66710704e-01 
 6.05000000e-02  9.00733584e-01  6.05000000e-02  8.68310534e-01 
 6.15000000e-02  9.02133950e-01  6.15000000e-02  8.69838436e-01 
 6.25000000e-02  9.03326792e-01  6.25000000e-02  8.71145237e-01 
 6.35000000e-02  9.04195712e-01  6.35000000e-02  8.72100399e-01 
 6.45000000e-02  9.04654796e-01  6.45000000e-02  8.72606152e-01 
 6.55000000e-02  9.04658123e-01  6.55000000e-02  8.72609741e-01 
 6.65000000e-02  9.04205427e-01  6.65000000e-02  8.72110875e-01 
 6.75000000e-02  9.03342072e-01  6.75000000e-02  8.71161690e-01 
 6.85000000e-02  9.02153289e-01  6.85000000e-02  8.69859314e-01 
 6.95000000e-02  9.00755080e-01  6.95000000e-02  8.68333794e-01 
 7.05000000e-02  8.99282400e-01  7.05000000e-02  8.66734030e-01 
 7.15000000e-02  8.97877056e-01  7.15000000e-02  8.65213788e-01 
 7.25000000e-02  8.96675732e-01  7.25000000e-02  8.63918836e-01 
 7.35000000e-02  8.95797711e-01  7.35000000e-02  8.62975009e-01 
 7.45000000e-02  8.95332755e-01  7.45000000e-02  8.62476014e-01 
 7.55000000e-02  8.95329351e-01  7.55000000e-02  8.62472405e-01 
 7.65000000e-02  8.95787967e-01  7.65000000e-02  8.62964439e-01 
 7.75000000e-02  8.96660372e-01  7.75000000e-02  8.63902243e-01 
 7.85000000e-02  8.97857643e-01  7.85000000e-02  8.65192744e-01 
 7.95000000e-02  8.99260877e-01  7.95000000e-02  8.66710704e-01 
 8.00000000e-02  8.99997369e-01  8.00000000e-02  8.67509823e-01 
 8.01000000e-02  9.00171730e-01  8.01000000e-02  8.67697094e-01 
 8.03000000e-02  9.00520310e-01  8.03000000e-02  8.68071716e-01 
 8.07000000e-02  9.01210680e-01  8.07000000e-02  8.68814390e-01 
 8.15000000e-02  9.02532592e-01  8.15000000e-02  8.70238965e-01 
 8.25000000e-02  9.03987643e-01  8.25000000e-02  8.71809406e-01 
 8.35000000e-02  9.05116981e-01  8.35000000e-02  8.73026419e-01 
 8.45000000e-02  9.05836704e-01  8.45000000e-02  8.73794118e-01 
 8.55000000e-02  9.06102686e-01  8.55000000e-02  8.74061741e-01 
 8.65000000e-02  9.05916564e-01  8.65000000e-02  8.73830833e-01 
 8.75000000e-02  9.05324877e-01  8.75000000e-02  8.73154686e-01 
 8.85000000e-02  9.04413229e-01  8.85000000e-02  8.72130759e-01 
 8.95000000e-02  9.03296934e-01  8.95000000e-02  8.70888477e-01 
 9.05000000e-02  9.02109620e-01  9.05000000e-02  8.69575436e-01 
 9.15000000e-02  9.00991367e-01  9.15000000e-02  8.68343568e-01 
 9.25000000e-02  9.00076776e-01  9.25000000e-02  8.67336624e-01 
 9.35000000e-02  8.99482934e-01  9.35000000e-02  8.66678313e-01 
 9.45000000e-02  8.99297637e-01  9.45000000e-02  8.66460387e-01 
 9.55000000e-02  8.99567725e-01  9.55000000e-02  8.66731597e-01 
 9.65000000e-02  9.00292089e-01  9.65000000e-02  8.67490844e-01 
 9.75000000e-02  9.01421777e-01  9.75000000e-02  8.68687348e-01 
 9.85000000e-02  9.02867582e-01  9.85000000e-02  8.70227877e-01 
 9.95000000e-02  9.04511252e-01  9.95000000e-02  8.71987856e-01 
 1.00000000e-01  9.05365459e-01  1.00000000e-01  8.72905496e-01 
 1.00100000e-01  9.05523514e-01  1.00100000e-01  8.73076446e-01 
 1.00300000e-01  9.05838435e-01  1.00300000e-01  8.73417289e-01 
 1.00700000e-01  9.06461579e-01  1.00700000e-01  8.74092536e-01 
 1.01500000e-01  9.07650550e-01  1.01500000e-01  8.75383721e-01 
 1.02500000e-01  9.08944300e-01  1.02500000e-01  8.76792320e-01 
 1.03500000e-01  9.09920733e-01  1.03500000e-01  8.77855785e-01 
 1.04500000e-01  9.10497855e-01  1.04500000e-01  8.78480272e-01 
 1.05500000e-01  9.10632341e-01  1.05500000e-01  8.78615747e-01 
 1.06500000e-01  9.10324889e-01  1.06500000e-01  8.78262813e-01 
 1.07500000e-01  9.09619679e-01  1.07500000e-01  8.77472532e-01 
 1.08500000e-01  9.08599350e-01  1.08500000e-01  8.76339204e-01 
 1.09500000e-01  9.07375810e-01  1.09500000e-01  8.74988986e-01 
 1.10500000e-01  9.06079771e-01  1.10500000e-01  8.73566462e-01 
 1.11500000e-01  9.04849000e-01  1.11500000e-01  8.72221310e-01 
 1.12500000e-01  9.03816444e-01  1.12500000e-01  8.71095700e-01 
 1.13500000e-01  9.03098483e-01  1.13500000e-01  8.70312562e-01 
 1.14500000e-01  9.02782659e-01  1.14500000e-01  8.69963377e-01 
 1.15500000e-01  9.02916086e-01  1.15500000e-01  8.70097227e-01 
 1.16500000e-01  9.03498243e-01  1.16500000e-01  8.70713648e-01 
 1.17500000e-01  9.04481282e-01  1.17500000e-01  8.71762934e-01 
 1.18500000e-01  9.05777347e-01  1.18500000e-01  8.73153100e-01 
 1.19500000e-01  9.07269635e-01  1.19500000e-01  8.74761134e-01 
 1.20000000e-01  9.08048100e-01  1.20000000e-01  8.75602697e-01 
 1.20100000e-01  9.08199873e-01  1.20100000e-01  8.75767317e-01 
 1.20300000e-01  9.08502474e-01  1.20300000e-01  8.76095751e-01 
 1.20700000e-01  9.09100910e-01  1.20700000e-01  8.76746231e-01 
 1.21500000e-01  9.10240999e-01  1.21500000e-01  8.77988455e-01 
 1.22500000e-01  9.11476007e-01  1.22500000e-01  8.79338112e-01 
 1.23500000e-01  9.12397680e-01  1.23500000e-01  8.80346633e-01 
 1.24500000e-01  9.12925329e-01  1.24500000e-01  8.80921368e-01 
 1.25500000e-01  9.13015957e-01  1.25500000e-01  8.81012798e-01 
 1.26500000e-01  9.12670099e-01  1.26500000e-01  8.80621224e-01 
 1.27500000e-01  9.11930886e-01  1.27500000e-01  8.79796664e-01 
 1.28500000e-01  9.10879352e-01  1.28500000e-01  8.78631892e-01 
 1.29500000e-01  9.09625749e-01  1.29500000e-01  8.77251348e-01 
 1.30500000e-01  9.08299182e-01  1.30500000e-01  8.75798030e-01 
 1.31500000e-01  9.07036089e-01  1.31500000e-01  8.74420301e-01 
 1.32500000e-01  9.05968514e-01  1.32500000e-01  8.73259406e-01 
 1.33500000e-01  9.05212314e-01  1.33500000e-01  8.72437669e-01 
 1.34500000e-01  9.04854515e-01  1.34500000e-01  8.72046309e-01 
 1.35500000e-01  9.04942453e-01  1.35500000e-01  8.72134387e-01 
 1.36500000e-01  9.05475650e-01  1.36500000e-01  8.72701682e-01 
 1.37500000e-01  9.06406833e-01  1.37500000e-01  8.73698911e-01 
 1.38500000e-01  9.07648691e-01  1.38500000e-01  8.75034741e-01 
 1.39500000e-01  9.09085378e-01  1.39500000e-01  8.76586957e-01 
 1.40500000e-01  9.10585054e-01  1.40500000e-01  8.78214395e-01 
 1.41500000e-01  9.12011495e-01  1.41500000e-01  8.79769066e-01 
 1.42500000e-01  9.13236473e-01  1.42500000e-01  8.81108626e-01 
 1.43500000e-01  9.14150598e-01  1.43500000e-01  8.82109594e-01 
 1.44500000e-01  9.14674119e-01  1.44500000e-01  8.82680247e-01 
 1.45500000e-01  9.14764673e-01  1.45500000e-01  8.82771632e-01 
 1.46500000e-01  9.14422799e-01  1.46500000e-01  8.82384060e-01 
 1.47500000e-01  9.13691028e-01  1.47500000e-01  8.81566980e-01 
 1.48500000e-01  9.12649521e-01  1.48500000e-01  8.80412180e-01 
 1.49500000e-01  9.11407209e-01  1.49500000e-01  8.79042889e-01 
 1.50000000e-01  9.10750282e-01  1.50000000e-01  8.78321698e-01 
 1.50100000e-01  9.10600594e-01  1.50100000e-01  8.78159219e-01 
 1.50300000e-01  9.10300933e-01  1.50300000e-01  8.77834240e-01 
 1.50700000e-01  9.09706747e-01  1.50700000e-01  8.77190664e-01 
 1.51500000e-01  9.08569080e-01  1.51500000e-01  8.75961751e-01 
 1.52500000e-01  9.07327480e-01  1.52500000e-01  8.74625951e-01 
 1.53500000e-01  9.06394093e-01  1.53500000e-01  8.73625952e-01 
 1.54500000e-01  9.05856268e-01  1.54500000e-01  8.73053536e-01 
 1.55500000e-01  9.05762070e-01  1.55500000e-01  8.72958543e-01 
 1.56500000e-01  9.06112127e-01  1.56500000e-01  8.73341678e-01 
 1.57500000e-01  9.06860078e-01  1.57500000e-01  8.74154635e-01 
 1.58500000e-01  9.07919403e-01  1.58500000e-01  8.75307012e-01 
 1.59500000e-01  9.09175299e-01  1.59500000e-01  8.76677373e-01 
 1.60500000e-01  9.10496205e-01  1.60500000e-01  8.78125072e-01 
 1.61500000e-01  9.11746207e-01  1.61500000e-01  8.79502266e-01 
 1.62500000e-01  9.12796696e-01  1.62500000e-01  8.80666290e-01 
 1.63500000e-01  9.13537385e-01  1.63500000e-01  8.81492857e-01 
 1.64500000e-01  9.13887459e-01  1.64500000e-01  8.81889056e-01 
 1.65500000e-01  9.13803211e-01  1.65500000e-01  8.81804576e-01 
 1.66500000e-01  9.13283835e-01  1.66500000e-01  8.81238519e-01 
 1.67500000e-01  9.12371254e-01  1.67500000e-01  8.80239537e-01 
 1.68500000e-01  9.11145139e-01  1.68500000e-01  8.78899219e-01 
 1.69500000e-01  9.09715097e-01  1.69500000e-01  8.77341195e-01 
 1.70500000e-01  9.08209795e-01  1.70500000e-01  8.75708142e-01 
 1.71500000e-01  9.06765835e-01  1.71500000e-01  8.74148559e-01 
 1.72500000e-01  9.05515721e-01  1.72500000e-01  8.72804206e-01 
 1.73500000e-01  9.04576205e-01  1.73500000e-01  8.71798181e-01 
 1.74500000e-01  9.04035240e-01  1.74500000e-01  8.71222634e-01 
 1.75500000e-01  9.03940995e-01  1.75500000e-01  8.71127597e-01 
 1.76500000e-01  9.04294127e-01  1.76500000e-01  8.71513784e-01 
 1.77500000e-01  9.05048023e-01  1.77500000e-01  8.72332685e-01 
 1.78500000e-01  9.06115828e-01  1.78500000e-01  8.73493503e-01 
 1.79500000e-01  9.07382049e-01  1.79500000e-01  8.74874172e-01 
 1.80000000e-01  9.08048441e-01  1.80000000e-01  8.75603027e-01 
 1.80100000e-01  9.08171197e-01  1.80100000e-01  8.75738548e-01 
 1.80300000e-01  9.08415860e-01  1.80300000e-01  8.76008703e-01 
 1.80700000e-01  9.08898833e-01  1.80700000e-01  8.76543071e-01 
 1.81500000e-01  9.09809730e-01  1.81500000e-01  8.77554817e-01 
 1.82500000e-01  9.10761033e-01  1.82500000e-01  8.78619161e-01 
 1.83500000e-01  9.11400916e-01  1.83500000e-01  8.79344211e-01 
 1.84500000e-01  9.11646512e-01  1.84500000e-01  8.79635384e-01 
 1.85500000e-01  9.11452942e-01  1.85500000e-01  8.79440956e-01 
 1.86500000e-01  9.10818535e-01  1.86500000e-01  8.78759265e-01 
 1.87500000e-01  9.09785263e-01  1.87500000e-01  8.77639044e-01 
 1.88500000e-01  9.08433762e-01  1.88500000e-01  8.76172732e-01 
 1.89500000e-01  9.06874934e-01  1.89500000e-01  8.74485430e-01 
 1.90500000e-01  9.05239365e-01  1.90500000e-01  8.72721566e-01 
 1.91500000e-01  9.03665386e-01  1.91500000e-01  8.71031479e-01 
 1.92500000e-01  9.02287341e-01  1.92500000e-01  8.69558623e-01 
 1.93500000e-01  9.01223290e-01  1.93500000e-01  8.68427614e-01 
 1.94500000e-01  9.00562627e-01  1.94500000e-01  8.67731824e-01 
 1.95500000e-01  9.00354374e-01  1.95500000e-01  8.67522233e-01 
 1.96500000e-01  9.00599755e-01  1.96500000e-01  8.67800126e-01 
 1.97500000e-01  9.01252429e-01  1.97500000e-01  8.68517172e-01 
 1.98500000e-01  9.02225195e-01  1.98500000e-01  8.69582235e-01 
 1.99500000e-01  9.03401556e-01  1.99500000e-01  8.70872354e-01 
 2.00500000e-01  9.04647449e-01  2.00500000e-01  8.72244424e-01 
 2.01500000e-01  9.05823711e-01  2.01500000e-01  8.73547220e-01 
 2.02500000e-01  9.06797462e-01  2.02500000e-01  8.74633930e-01 
 2.03500000e-01  9.07454140e-01  2.03500000e-01  8.75375839e-01 
 2.04500000e-01  9.07708757e-01  2.04500000e-01  8.75676057e-01 
 2.05500000e-01  9.07515090e-01  2.05500000e-01  8.75481599e-01 
 2.06500000e-01  9.06871499e-01  2.06500000e-01  8.74790801e-01 
 2.07500000e-01  9.05821266e-01  2.07500000e-01  8.73653661e-01 
 2.08500000e-01  9.04447054e-01  2.08500000e-01  8.72164846e-01 
 2.09500000e-01  9.02862780e-01  2.09500000e-01  8.70452162e-01 
 2.10500000e-01  9.01201531e-01  2.10500000e-01  8.68662765e-01 
 2.11500000e-01  8.99604095e-01  2.11500000e-01  8.66949397e-01 
 2.12500000e-01  8.98206843e-01  2.12500000e-01  8.65457433e-01 
 2.13500000e-01  8.97129106e-01  2.13500000e-01  8.64312884e-01 
 2.14500000e-01  8.96461299e-01  2.14500000e-01  8.63610035e-01 
 2.15500000e-01  8.96252797e-01  2.15500000e-01  8.63400319e-01 
 2.16500000e-01  8.96505099e-01  2.16500000e-01  8.63685017e-01 
 2.17500000e-01  8.97171059e-01  2.17500000e-01  8.64415363e-01 
 2.18500000e-01  8.98162713e-01  2.18500000e-01  8.65499315e-01 
 2.19500000e-01  8.99362181e-01  2.19500000e-01  8.66812515e-01 
 2.20000000e-01  8.99997653e-01  2.20000000e-01  8.67510118e-01 
 2.20100000e-01  9.00145228e-01  2.20100000e-01  8.67670519e-01 
 2.20300000e-01  9.00440293e-01  2.20300000e-01  8.67991305e-01 
 2.20700000e-01  9.01023945e-01  2.20700000e-01  8.68626717e-01 
 2.21500000e-01  9.02133956e-01  2.21500000e-01  8.69838379e-01 
 2.22500000e-01  9.03326802e-01  2.22500000e-01  8.71145247e-01 
 2.23500000e-01  9.04195683e-01  2.23500000e-01  8.72100397e-01 
 2.24500000e-01  9.04654811e-01  2.24500000e-01  8.72606155e-01 
 2.25500000e-01  9.04658117e-01  2.25500000e-01  8.72609738e-01 
 2.26500000e-01  9.04205438e-01  2.26500000e-01  8.72110878e-01 
 2.27500000e-01  9.03342050e-01  2.27500000e-01  8.71161688e-01 
 2.28500000e-01  9.02153347e-01  2.28500000e-01  8.69859319e-01 
 2.29500000e-01  9.00755061e-01  2.29500000e-01  8.68333792e-01 
 2.30500000e-01  8.99282425e-01  2.30500000e-01  8.66734033e-01 
 2.31500000e-01  8.97877033e-01  2.31500000e-01  8.65213784e-01 
 2.32500000e-01  8.96675723e-01  2.32500000e-01  8.63918839e-01 
 2.33500000e-01  8.95797670e-01  2.33500000e-01  8.62975007e-01 
 2.34500000e-01  8.95332725e-01  2.34500000e-01  8.62476017e-01 
 2.35500000e-01  8.95329394e-01  2.35500000e-01  8.62472403e-01 
 2.36500000e-01  8.95787950e-01  2.36500000e-01  8.62964442e-01 
 2.37500000e-01  8.96660386e-01  2.37500000e-01  8.63902240e-01 
 2.38500000e-01  8.97857659e-01  2.38500000e-01  8.65192747e-01 
 2.39500000e-01  8.99260900e-01  2.39500000e-01  8.66710701e-01 
 2.40500000e-01  9.00733564e-01  2.40500000e-01  8.68310537e-01 
 2.41500000e-01  9.02133951e-01  2.41500000e-01  8.69838434e-01 
 2.42500000e-01  9.03326797e-01  2.42500000e-01  8.71145239e-01 
 2.43500000e-01  9.04195704e-01  2.43500000e-01  8.72100397e-01 
 2.44500000e-01  9.04654802e-01  2.44500000e-01  8.72606155e-01 
 2.45500000e-01  9.04658146e-01  2.45500000e-01  8.72609738e-01 
 2.46500000e-01  9.04205429e-01  2.46500000e-01  8.72110878e-01 
 2.47500000e-01  9.03342062e-01  2.47500000e-01  8.71161688e-01 
 2.48500000e-01  9.02153326e-01  2.48500000e-01  8.69859318e-01 
 2.49500000e-01  9.00755072e-01  2.49500000e-01  8.68333792e-01 
 2.50500000e-01  8.99282418e-01  2.50500000e-01  8.66734032e-01 
 2.51500000e-01  8.97877068e-01  2.51500000e-01  8.65213785e-01 
 2.52500000e-01  8.96675718e-01  2.52500000e-01  8.63918839e-01 
 2.53500000e-01  8.95797659e-01  2.53500000e-01  8.62975006e-01 
 2.54500000e-01  8.95332719e-01  2.54500000e-01  8.62476017e-01 
 2.55500000e-01  8.95329385e-01  2.55500000e-01  8.62472402e-01 
 2.56500000e-01  8.95787962e-01  2.56500000e-01  8.62964442e-01 
 2.57500000e-01  8.96660409e-01  2.57500000e-01  8.63902240e-01 
 2.58500000e-01  8.97857654e-01  2.58500000e-01  8.65192748e-01 
 2.59500000e-01  8.99260871e-01  2.59500000e-01  8.66710701e-01 
 2.60500000e-01  9.00733623e-01  2.60500000e-01  8.68310537e-01 
 2.61500000e-01  9.02133954e-01  2.61500000e-01  8.69838433e-01 
 2.62500000e-01  9.03326760e-01  2.62500000e-01  8.71145239e-01 
 2.63500000e-01  9.04195698e-01  2.63500000e-01  8.72100397e-01 
 2.64500000e-01  9.04654803e-01  2.64500000e-01  8.72606155e-01 
 2.65500000e-01  9.04658145e-01  2.65500000e-01  8.72609739e-01 
 2.66500000e-01  9.04205456e-01  2.66500000e-01  8.72110878e-01 
 2.67500000e-01  9.03342040e-01  2.67500000e-01  8.71161687e-01 
 2.68500000e-01  9.02153298e-01  2.68500000e-01  8.69859317e-01 
 2.69500000e-01  9.00755081e-01  2.69500000e-01  8.68333792e-01 
 2.70500000e-01  8.99282406e-01  2.70500000e-01  8.66734033e-01 
