 time            v(out)          time            v(outpl)        time            v(outdrl)       time            v(outdrlpl)    
 0.00000000e+00  7.04414977e-01  0.00000000e+00  6.74312255e-01  0.00000000e+00  6.99507471e-01  0.00000000e+00  7.02353097e-01 
 1.00000000e-05  7.04385002e-01  1.00000000e-05  6.74283180e-01  1.00000000e-05  6.99507466e-01  1.00000000e-05  7.02353079e-01 
 1.55958930e-05  7.04377241e-01  1.55958930e-05  6.74274385e-01  1.55958930e-05  6.99365806e-01  1.55958930e-05  7.02215240e-01 
 2.67876790e-05  7.04355578e-01  2.67876790e-05  6.74251054e-01  2.67876790e-05  6.99059612e-01  2.67876790e-05  7.01909953e-01 
 4.91712510e-05  7.04310228e-01  4.91712510e-05  6.74202669e-01  4.91712510e-05  6.98445802e-01  4.91712510e-05  7.01289762e-01 
 9.39383950e-05  7.04221324e-01  9.39383950e-05  6.74107495e-01  9.39383950e-05  6.97220079e-01  9.39383950e-05  7.00054430e-01 
 1.83472683e-04  7.04041853e-01  1.83472683e-04  6.73915509e-01  1.83472683e-04  6.94769301e-01  1.83472683e-04  6.97582158e-01 
 3.62541259e-04  7.03684289e-01  3.62541259e-04  6.73532934e-01  3.62541259e-04  6.89885145e-01  3.62541259e-04  6.92656820e-01 
 7.20678411e-04  7.02963370e-01  7.20678411e-04  6.72762805e-01  7.20678411e-04  6.80232135e-01  7.20678411e-04  6.82921614e-01 
 1.43695271e-03  7.01487336e-01  1.43695271e-03  6.71193960e-01  1.43695271e-03  6.61815027e-01  1.43695271e-03  6.64353011e-01 
 2.43695271e-03  6.99271606e-01  2.43695271e-03  6.68875315e-01  2.43695271e-03  6.39526096e-01  2.43695271e-03  6.41888308e-01 
 3.43695271e-03  6.96782597e-01  3.43695271e-03  6.66330585e-01  3.43695271e-03  6.23133738e-01  3.43695271e-03  6.25372888e-01 
 4.43695271e-03  6.93946521e-01  4.43695271e-03  6.63499013e-01  4.43695271e-03  6.14200409e-01  4.43695271e-03  6.16372787e-01 
 5.43695271e-03  6.90740399e-01  5.43695271e-03  6.60362863e-01  5.43695271e-03  6.13577828e-01  5.43695271e-03  6.15742962e-01 
 6.43695271e-03  6.87187920e-01  6.43695271e-03  6.56945203e-01  6.43695271e-03  6.21322803e-01  6.43695271e-03  6.23538887e-01 
 7.43695271e-03  6.83366515e-01  7.43695271e-03  6.53315335e-01  7.43695271e-03  6.36700218e-01  7.43695271e-03  6.39025515e-01 
 8.43695271e-03  6.79388924e-01  8.43695271e-03  6.49572417e-01  8.43695271e-03  6.58246236e-01  8.43695271e-03  6.60734641e-01 
 9.43695271e-03  6.75392436e-01  9.43695271e-03  6.45833979e-01  9.43695271e-03  6.83894291e-01  9.43695271e-03  6.86590467e-01 
 1.04369527e-02  6.71515588e-01  1.04369527e-02  6.42217280e-01  1.04369527e-02  7.11170211e-01  1.04369527e-02  7.14095344e-01 
 1.14369527e-02  6.67882130e-01  1.14369527e-02  6.38825135e-01  1.14369527e-02  7.37399536e-01  1.14369527e-02  7.40532541e-01 
 1.24369527e-02  6.64585678e-01  1.24369527e-02  6.35734995e-01  1.24369527e-02  7.59968040e-01  1.24369527e-02  7.63255345e-01 
 1.34369527e-02  6.61703853e-01  1.34369527e-02  6.33011302e-01  1.34369527e-02  7.76627605e-01  1.34369527e-02  7.80015408e-01 
 1.44369527e-02  6.59289240e-01  1.44369527e-02  6.30697725e-01  1.44369527e-02  7.85723128e-01  1.44369527e-02  7.89161819e-01 
 1.54369527e-02  6.57372577e-01  1.54369527e-02  6.28819943e-01  1.54369527e-02  7.86358097e-01  1.54369527e-02  7.89802578e-01 
 1.64369527e-02  6.55950689e-01  1.64369527e-02  6.27375633e-01  1.64369527e-02  7.78467636e-01  1.64369527e-02  7.81871271e-01 
 1.74369527e-02  6.54996603e-01  1.74369527e-02  6.26342626e-01  1.74369527e-02  7.62832496e-01  1.74369527e-02  7.66147449e-01 
 1.84369527e-02  6.54456374e-01  1.84369527e-02  6.25676969e-01  1.84369527e-02  7.41001013e-01  1.84369527e-02  7.44170638e-01 
 1.94369527e-02  6.54265669e-01  1.94369527e-02  6.25326881e-01  1.94369527e-02  7.15153770e-01  1.94369527e-02  7.18120994e-01 
 2.04369527e-02  6.54342884e-01  2.04369527e-02  6.25227188e-01  2.04369527e-02  6.87863929e-01  2.04369527e-02  6.90601044e-01 
 2.14369527e-02  6.54593553e-01  2.14369527e-02  6.25302561e-01  2.14369527e-02  6.61813614e-01  2.14369527e-02  6.64336052e-01 
 2.24369527e-02  6.54910601e-01  2.24369527e-02  6.25466181e-01  2.24369527e-02  6.39524624e-01  2.24369527e-02  6.41872877e-01 
 2.34369527e-02  6.55194822e-01  2.34369527e-02  6.25636178e-01  2.34369527e-02  6.23132399e-01  2.34369527e-02  6.25358697e-01 
 2.44369527e-02  6.55365135e-01  2.44369527e-02  6.25744125e-01  2.44369527e-02  6.14199108e-01  2.44369527e-02  6.16359786e-01 
 2.54369527e-02  6.55378575e-01  2.54369527e-02  6.25753135e-01  2.54369527e-02  6.13576585e-01  2.54369527e-02  6.15730929e-01 
 2.64369527e-02  6.55229957e-01  2.64369527e-02  6.25658836e-01  2.64369527e-02  6.21321611e-01  2.64369527e-02  6.23527868e-01 
 2.74369527e-02  6.54961896e-01  2.74369527e-02  6.25498003e-01  2.74369527e-02  6.36702956e-01  2.74369527e-02  6.39019912e-01 
 2.84369527e-02  6.54644859e-01  2.84369527e-02  6.25329915e-01  2.84369527e-02  6.58245210e-01  2.84369527e-02  6.60725499e-01 
 2.94369527e-02  6.54380914e-01  2.94369527e-02  6.25239318e-01  2.94369527e-02  6.83892001e-01  2.94369527e-02  6.86580942e-01 
 3.04369527e-02  6.54275449e-01  3.04369527e-02  6.25311672e-01  3.04369527e-02  7.11169513e-01  3.04369527e-02  7.14088518e-01 
 3.14369527e-02  6.54426803e-01  3.14369527e-02  6.25625638e-01  3.14369527e-02  7.37398869e-01  3.14369527e-02  7.40526864e-01 
 3.24369527e-02  6.54914480e-01  3.24369527e-02  6.26244568e-01  3.24369527e-02  7.59967588e-01  3.24369527e-02  7.63251295e-01 
 3.34369527e-02  6.55809459e-01  3.34369527e-02  6.27225651e-01  3.34369527e-02  7.76627331e-01  3.34369527e-02  7.80012860e-01 
 3.44369527e-02  6.57164273e-01  3.44369527e-02  6.28611464e-01  3.44369527e-02  7.85723022e-01  3.44369527e-02  7.89160937e-01 
 3.54369527e-02  6.59013530e-01  3.54369527e-02  6.30430470e-01  3.54369527e-02  7.86358177e-01  3.54369527e-02  7.89803239e-01 
 3.64369527e-02  6.61360097e-01  3.64369527e-02  6.32684785e-01  3.64369527e-02  7.78467884e-01  3.64369527e-02  7.81873598e-01 
 3.74369527e-02  6.64181345e-01  3.74369527e-02  6.35355460e-01  3.74369527e-02  7.62832927e-01  3.74369527e-02  7.66151298e-01 
 3.84369527e-02  6.67424076e-01  3.84369527e-02  6.38398082e-01  3.84369527e-02  7.41001602e-01  3.84369527e-02  7.44176071e-01 
 3.94369527e-02  6.71018332e-01  3.94369527e-02  6.41754781e-01  3.94369527e-02  7.15154524e-01  3.94369527e-02  7.18127744e-01 
 4.04369527e-02  6.74869118e-01  4.04369527e-02  6.45346954e-01  4.04369527e-02  6.87864810e-01  4.04369527e-02  6.90609063e-01 
 4.14369527e-02  6.78859500e-01  4.14369527e-02  6.49077356e-01  4.14369527e-02  6.61815608e-01  4.14369527e-02  6.64346492e-01 
 4.24369527e-02  6.82849203e-01  4.24369527e-02  6.52828051e-01  4.24369527e-02  6.39525697e-01  4.24369527e-02  6.41882866e-01 
 4.34369527e-02  6.86702405e-01  4.34369527e-02  6.56482337e-01  4.34369527e-02  6.23133569e-01  4.34369527e-02  6.25369589e-01 
 4.44369527e-02  6.90298406e-01  4.44369527e-02  6.59934840e-01  4.44369527e-02  6.14200341e-01  4.44369527e-02  6.16371681e-01 
 4.54369527e-02  6.93558017e-01  4.54369527e-02  6.63114648e-01  4.54369527e-02  6.13577879e-01  4.54369527e-02  6.15743792e-01 
 4.64369527e-02  6.96445423e-01  4.64369527e-02  6.65988512e-01  4.64369527e-02  6.21322940e-01  4.64369527e-02  6.23541897e-01 
 4.74369527e-02  6.98980978e-01  4.74369527e-02  6.68571719e-01  4.74369527e-02  6.36700478e-01  4.74369527e-02  6.39030577e-01 
 4.84369527e-02  7.01228465e-01  4.84369527e-02  6.70916729e-01  4.84369527e-02  6.58243463e-01  4.84369527e-02  6.60738440e-01 
 4.94369527e-02  7.03293678e-01  4.94369527e-02  6.73110727e-01  4.94369527e-02  6.83893385e-01  4.94369527e-02  6.86598959e-01 
 5.04369527e-02  7.05296756e-01  5.04369527e-02  6.75252446e-01  5.04369527e-02  7.11170745e-01  5.04369527e-02  7.14107782e-01 
 5.14369527e-02  7.07359732e-01  5.14369527e-02  6.77442074e-01  5.14369527e-02  7.37400132e-01  5.14369527e-02  7.40547342e-01 
 5.24369527e-02  7.09585137e-01  5.24369527e-02  6.79764296e-01  5.24369527e-02  7.59968738e-01  5.24369527e-02  7.63272625e-01 
 5.34369527e-02  7.12066522e-01  5.34369527e-02  6.82297253e-01  5.34369527e-02  7.76628378e-01  5.34369527e-02  7.80034685e-01 
 5.44369527e-02  7.14874165e-01  5.44369527e-02  6.85100589e-01  5.44369527e-02  7.85723928e-01  5.44369527e-02  7.89183229e-01 
 5.54369527e-02  7.18054456e-01  5.54369527e-02  6.88213906e-01  5.54369527e-02  7.86358951e-01  5.54369527e-02  7.89825773e-01 
 5.64369527e-02  7.21611117e-01  5.64369527e-02  6.91641012e-01  5.64369527e-02  7.78468492e-01  5.64369527e-02  7.81896416e-01 
 5.74369527e-02  7.25512196e-01  5.74369527e-02  6.95354932e-01  5.74369527e-02  7.62833382e-01  5.74369527e-02  7.66174119e-01 
 5.84369527e-02  7.29683415e-01  5.84369527e-02  6.99292560e-01  5.84369527e-02  7.41001875e-01  5.84369527e-02  7.44198749e-01 
 5.94369527e-02  7.34025518e-01  5.94369527e-02  7.03369384e-01  5.94369527e-02  7.15154995e-01  5.94369527e-02  7.18150632e-01 
 6.04369527e-02  7.38404854e-01  6.04369527e-02  7.07471376e-01  6.04369527e-02  6.87864706e-01  6.04369527e-02  6.90630224e-01 
 6.14369527e-02  7.42660706e-01  6.14369527e-02  7.11460185e-01  6.14369527e-02  6.61815375e-01  6.14369527e-02  6.64366667e-01 
 6.24369527e-02  7.46608224e-01  6.24369527e-02  7.15174755e-01  6.24369527e-02  6.39525279e-01  6.24369527e-02  6.41902111e-01 
 6.34369527e-02  7.50076035e-01  6.34369527e-02  7.18463353e-01  6.34369527e-02  6.23133010e-01  6.34369527e-02  6.25387920e-01 
 6.44369527e-02  7.52922281e-01  6.44369527e-02  7.21198011e-01  6.44369527e-02  6.14199629e-01  6.44369527e-02  6.16389369e-01 
 6.54369527e-02  7.55062992e-01  6.54369527e-02  7.23300687e-01  6.54369527e-02  6.13577041e-01  6.54369527e-02  6.15760909e-01 
 6.64369527e-02  7.56471562e-01  6.64369527e-02  7.24744986e-01  6.64369527e-02  6.21321962e-01  6.64369527e-02  6.23558708e-01 
 6.74369527e-02  7.57191390e-01  6.74369527e-02  7.25567202e-01  6.74369527e-02  6.36699385e-01  6.74369527e-02  6.39047116e-01 
 6.84369527e-02  7.57321143e-01  6.84369527e-02  7.25852841e-01  6.84369527e-02  6.58242251e-01  6.84369527e-02  6.60754860e-01 
 6.94369527e-02  7.57010552e-01  6.94369527e-02  7.25732100e-01  6.94369527e-02  6.83892089e-01  6.94369527e-02  6.86615170e-01 
 7.04369527e-02  7.56426281e-01  7.04369527e-02  7.25349490e-01  7.04369527e-02  7.11169370e-01  7.04369527e-02  7.14123792e-01 
 7.14369527e-02  7.55731618e-01  7.14369527e-02  7.24846258e-01  7.14369527e-02  7.37397078e-01  7.14369527e-02  7.40561377e-01 
 7.24369527e-02  7.55064068e-01  7.24369527e-02  7.24341549e-01  7.24369527e-02  7.59967400e-01  7.24369527e-02  7.63287361e-01 
 7.34369527e-02  7.54538250e-01  7.34369527e-02  7.23935012e-01  7.34369527e-02  7.76626950e-01  7.34369527e-02  7.80048334e-01 
 7.44369527e-02  7.54239281e-01  7.44369527e-02  7.23701087e-01  7.44369527e-02  7.85722552e-01  7.44369527e-02  7.89195884e-01 
 7.54369527e-02  7.54218279e-01  7.54369527e-02  7.23684470e-01  7.54369527e-02  7.86357635e-01  7.54369527e-02  7.89837272e-01 
 7.64369527e-02  7.54476120e-01  7.64369527e-02  7.23885833e-01  7.64369527e-02  7.78467241e-01  7.64369527e-02  7.81906840e-01 
 7.74369527e-02  7.54972317e-01  7.74369527e-02  7.24269915e-01  7.74369527e-02  7.62832230e-01  7.74369527e-02  7.66183310e-01 
 7.84369527e-02  7.55622615e-01  7.84369527e-02  7.24762951e-01  7.84369527e-02  7.41000826e-01  7.84369527e-02  7.44206750e-01 
 7.94369527e-02  7.56319544e-01  7.94369527e-02  7.25271415e-01  7.94369527e-02  7.15153720e-01  7.94369527e-02  7.18156384e-01 
 8.04369527e-02  7.56926237e-01  8.04369527e-02  7.25676719e-01  8.04369527e-02  6.87863962e-01  8.04369527e-02  6.90635555e-01 
 8.14369527e-02  7.57284648e-01  8.14369527e-02  7.25842116e-01  8.14369527e-02  6.61814766e-01  8.14369527e-02  6.64370589e-01 
 8.24369527e-02  7.57222436e-01  8.24369527e-02  7.25618280e-01  8.24369527e-02  6.39524844e-01  8.24369527e-02  6.41904891e-01 
 8.34369527e-02  7.56591188e-01  8.34369527e-02  7.24876102e-01  8.34369527e-02  6.23132752e-01  8.34369527e-02  6.25389542e-01 
 8.44369527e-02  7.55280227e-01  8.44369527e-02  7.23519555e-01  8.44369527e-02  6.14199533e-01  8.44369527e-02  6.16389974e-01 
 8.54369527e-02  7.53241969e-01  8.54369527e-02  7.21508389e-01  8.54369527e-02  6.13577120e-01  8.54369527e-02  6.15760448e-01 
 8.64369527e-02  7.50488319e-01  8.64369527e-02  7.18856200e-01  8.64369527e-02  6.21322202e-01  8.64369527e-02  6.23557232e-01 
 8.74369527e-02  7.47099407e-01  8.74369527e-02  7.15637607e-01  8.74369527e-02  6.36699803e-01  8.74369527e-02  6.39044498e-01 
 8.84369527e-02  7.43206256e-01  8.84369527e-02  7.11971181e-01  8.84369527e-02  6.58242828e-01  8.84369527e-02  6.60751099e-01 
 8.94369527e-02  7.38982474e-01  8.94369527e-02  7.08010983e-01  8.94369527e-02  6.83892838e-01  8.94369527e-02  6.86610088e-01 
 9.04369527e-02  7.34608286e-01  9.04369527e-02  7.03914340e-01  9.04369527e-02  7.11169330e-01  9.04369527e-02  7.14115817e-01 
 9.14369527e-02  7.30253225e-01  9.14369527e-02  6.99827201e-01  9.14369527e-02  7.37399833e-01  9.14369527e-02  7.40555084e-01 
 9.24369527e-02  7.26048445e-01  9.24369527e-02  6.95861827e-01  9.24369527e-02  7.59968424e-01  9.24369527e-02  7.63278259e-01 
 9.34369527e-02  7.22103710e-01  9.34369527e-02  6.92111596e-01  9.34369527e-02  7.76628220e-01  9.34369527e-02  7.80038085e-01 
 9.44369527e-02  7.18493459e-01  9.44369527e-02  6.88639780e-01  9.44369527e-02  7.85723859e-01  9.44369527e-02  7.89184538e-01 
 9.54369527e-02  7.15259780e-01  9.54369527e-02  6.85481968e-01  9.54369527e-02  7.86359010e-01  9.54369527e-02  7.89824779e-01 
 9.64369527e-02  7.12399765e-01  9.64369527e-02  6.82635162e-01  9.64369527e-02  7.78468644e-01  9.64369527e-02  7.81893319e-01 
 9.74369527e-02  7.09876464e-01  9.74369527e-02  6.80067550e-01  9.74369527e-02  7.62833659e-01  9.74369527e-02  7.66168745e-01 
 9.84369527e-02  7.07618306e-01  9.84369527e-02  6.77718489e-01  9.84369527e-02  7.41002237e-01  9.84369527e-02  7.44191386e-01 
 9.94369527e-02  7.05539623e-01  9.94369527e-02  6.75516092e-01  9.94369527e-02  7.15155105e-01  9.94369527e-02  7.18140433e-01 
 1.00436953e-01  7.03534596e-01  1.00436953e-01  6.73373051e-01  1.00436953e-01  6.87863955e-01  1.00436953e-01  6.90618228e-01 
 1.01436953e-01  7.01487638e-01  1.01436953e-01  6.71194227e-01  1.01436953e-01  6.61816070e-01  1.01436953e-01  6.64354261e-01 
 1.02436953e-01  6.99271564e-01  1.02436953e-01  6.68875282e-01  1.02436953e-01  6.39525939e-01  1.02436953e-01  6.41888329e-01 
 1.03436953e-01  6.96782549e-01  1.03436953e-01  6.66330557e-01  1.03436953e-01  6.23133749e-01  1.03436953e-01  6.25372773e-01 
 1.04436953e-01  6.93946587e-01  1.04436953e-01  6.63499037e-01  1.04436953e-01  6.14200389e-01  1.04436953e-01  6.16372895e-01 
 1.05436953e-01  6.90740364e-01  1.05436953e-01  6.60362839e-01  1.05436953e-01  6.13577851e-01  1.05436953e-01  6.15742857e-01 
 1.06436953e-01  6.87187981e-01  1.06436953e-01  6.56945226e-01  1.06436953e-01  6.21322780e-01  1.06436953e-01  6.23538993e-01 
 1.07436953e-01  6.83366426e-01  1.07436953e-01  6.53315311e-01  1.07436953e-01  6.36700241e-01  1.07436953e-01  6.39025403e-01 
 1.08436953e-01  6.79389032e-01  1.08436953e-01  6.49572442e-01  1.08436953e-01  6.58246213e-01  1.08436953e-01  6.60734755e-01 
 1.09436953e-01  6.75392377e-01  1.09436953e-01  6.45833954e-01  1.09436953e-01  6.83894314e-01  1.09436953e-01  6.86590352e-01 
 1.10436953e-01  6.71515675e-01  1.10436953e-01  6.42217305e-01  1.10436953e-01  7.11170189e-01  1.10436953e-01  7.14095454e-01 
 1.11436953e-01  6.67882145e-01  1.11436953e-01  6.38825110e-01  1.11436953e-01  7.37399559e-01  1.11436953e-01  7.40532422e-01 
 1.12436953e-01  6.64585705e-01  1.12436953e-01  6.35735020e-01  1.12436953e-01  7.59968017e-01  1.12436953e-01  7.63255465e-01 
 1.13436953e-01  6.61703853e-01  1.13436953e-01  6.33011277e-01  1.13436953e-01  7.76627629e-01  1.13436953e-01  7.80015286e-01 
 1.14436953e-01  6.59289313e-01  1.14436953e-01  6.30697751e-01  1.14436953e-01  7.85723105e-01  1.14436953e-01  7.89161931e-01 
 1.15436953e-01  6.57372552e-01  1.15436953e-01  6.28819917e-01  1.15436953e-01  7.86358120e-01  1.15436953e-01  7.89802463e-01 
 1.16436953e-01  6.55950694e-01  1.16436953e-01  6.27375658e-01  1.16436953e-01  7.78467613e-01  1.16436953e-01  7.81871384e-01 
 1.17436953e-01  6.54996567e-01  1.17436953e-01  6.26342601e-01  1.17436953e-01  7.62832519e-01  1.17436953e-01  7.66147342e-01 
 1.18436953e-01  6.54456392e-01  1.18436953e-01  6.25676994e-01  1.18436953e-01  7.41000989e-01  1.18436953e-01  7.44170751e-01 
 1.19436953e-01  6.54265651e-01  1.19436953e-01  6.25326856e-01  1.19436953e-01  7.15153792e-01  1.19436953e-01  7.18120895e-01 
 1.20436953e-01  6.54342907e-01  1.20436953e-01  6.25227213e-01  1.20436953e-01  6.87863906e-01  1.20436953e-01  6.90601142e-01 
 1.21436953e-01  6.54593526e-01  1.21436953e-01  6.25302535e-01  1.21436953e-01  6.61813636e-01  1.21436953e-01  6.64335965e-01 
 1.22436953e-01  6.54910600e-01  1.22436953e-01  6.25466205e-01  1.22436953e-01  6.39524601e-01  1.22436953e-01  6.41872963e-01 
 1.23436953e-01  6.55194787e-01  1.23436953e-01  6.25636154e-01  1.23436953e-01  6.23132422e-01  1.23436953e-01  6.25358613e-01 
 1.24436953e-01  6.55365155e-01  1.24436953e-01  6.25744148e-01  1.24436953e-01  6.14199086e-01  1.24436953e-01  6.16359864e-01 
 1.25436953e-01  6.55378525e-01  1.25436953e-01  6.25753111e-01  1.25436953e-01  6.13576607e-01  1.25436953e-01  6.15730850e-01 
 1.26436953e-01  6.55230010e-01  1.26436953e-01  6.25658860e-01  1.26436953e-01  6.21321589e-01  1.26436953e-01  6.23527945e-01 
 1.27436953e-01  6.54961826e-01  1.27436953e-01  6.25497978e-01  1.27436953e-01  6.36702978e-01  1.27436953e-01  6.39019828e-01 
 1.28436953e-01  6.54644927e-01  1.28436953e-01  6.25329939e-01  1.28436953e-01  6.58245188e-01  1.28436953e-01  6.60725581e-01 
 1.29436953e-01  6.54380866e-01  1.29436953e-01  6.25239294e-01  1.29436953e-01  6.83892023e-01  1.29436953e-01  6.86580865e-01 
 1.30436953e-01  6.54275489e-01  1.30436953e-01  6.25311696e-01  1.30436953e-01  7.11169490e-01  1.30436953e-01  7.14088602e-01 
 1.31436953e-01  6.54426745e-01  1.31436953e-01  6.25625613e-01  1.31436953e-01  7.37398892e-01  1.31436953e-01  7.40526777e-01 
 1.32436953e-01  6.54914535e-01  1.32436953e-01  6.26244591e-01  1.32436953e-01  7.59967566e-01  1.32436953e-01  7.63251379e-01 
 1.33436953e-01  6.55809416e-01  1.33436953e-01  6.27225627e-01  1.33436953e-01  7.76627353e-01  1.33436953e-01  7.80012771e-01 
 1.34436953e-01  6.57164302e-01  1.34436953e-01  6.28611488e-01  1.34436953e-01  7.85722999e-01  1.34436953e-01  7.89161021e-01 
 1.35436953e-01  6.59013515e-01  1.35436953e-01  6.30430446e-01  1.35436953e-01  7.86358200e-01  1.35436953e-01  7.89803152e-01 
 1.36436953e-01  6.61360138e-01  1.36436953e-01  6.32684809e-01  1.36436953e-01  7.78467860e-01  1.36436953e-01  7.81873688e-01 
 1.37436953e-01  6.64181369e-01  1.37436953e-01  6.35355436e-01  1.37436953e-01  7.62832949e-01  1.37436953e-01  7.66151218e-01 
 1.38436953e-01  6.67424136e-01  1.38436953e-01  6.38398106e-01  1.38436953e-01  7.41001579e-01  1.38436953e-01  7.44176148e-01 
 1.39436953e-01  6.71018261e-01  1.39436953e-01  6.41754758e-01  1.39436953e-01  7.15154546e-01  1.39436953e-01  7.18127668e-01 
 1.40436953e-01  6.74869117e-01  1.40436953e-01  6.45346978e-01  1.40436953e-01  6.87864788e-01  1.40436953e-01  6.90609133e-01 
 1.41436953e-01  6.78859440e-01  1.41436953e-01  6.49077333e-01  1.41436953e-01  6.61815630e-01  1.41436953e-01  6.64346427e-01 
 1.42436953e-01  6.82849249e-01  1.42436953e-01  6.52828075e-01  1.42436953e-01  6.39525675e-01  1.42436953e-01  6.41882930e-01 
 1.43436953e-01  6.86702362e-01  1.43436953e-01  6.56482313e-01  1.43436953e-01  6.23133591e-01  1.43436953e-01  6.25369531e-01 
 1.44436953e-01  6.90298453e-01  1.44436953e-01  6.59934864e-01  1.44436953e-01  6.14200319e-01  1.44436953e-01  6.16371741e-01 
 1.45436953e-01  6.93557993e-01  1.45436953e-01  6.63114625e-01  1.45436953e-01  6.13577901e-01  1.45436953e-01  6.15743732e-01 
