 time            v(out)          time            v(outpl)       
 0.00000000e+00  9.02382515e-01  0.00000000e+00  9.20326645e-01 
 1.00000000e-07  9.02382521e-01  1.00000000e-07  9.20326652e-01 
 2.00000000e-07  9.02382535e-01  2.00000000e-07  9.20326665e-01 
 4.00000000e-07  9.02382577e-01  4.00000000e-07  9.20326705e-01 
 8.00000000e-07  9.02382746e-01  8.00000000e-07  9.20326869e-01 
 1.60000000e-06  9.02383424e-01  1.60000000e-06  9.20327521e-01 
 3.20000000e-06  9.02386100e-01  3.20000000e-06  9.20330058e-01 
 6.40000000e-06  9.02396392e-01  6.40000000e-06  9.20339710e-01 
 1.28000000e-05  9.02434238e-01  1.28000000e-05  9.20375026e-01 
 2.28000000e-05  9.02530522e-01  2.28000000e-05  9.20464230e-01 
 3.28000000e-05  9.02661218e-01  3.28000000e-05  9.20584250e-01 
 4.28000000e-05  9.02816191e-01  4.28000000e-05  9.20725478e-01 
 5.28000000e-05  9.02988287e-01  5.28000000e-05  9.20881254e-01 
 6.28000000e-05  9.03172414e-01  6.28000000e-05  9.21046978e-01 
 7.28000000e-05  9.03364919e-01  7.28000000e-05  9.21219471e-01 
 8.28000000e-05  9.03563246e-01  8.28000000e-05  9.21396538e-01 
 9.28000000e-05  9.03765589e-01  9.28000000e-05  9.21576665e-01 
 1.02800000e-04  9.03970667e-01  1.02800000e-04  9.21758805e-01 
 1.12800000e-04  9.04177580e-01  1.12800000e-04  9.21942237e-01 
 1.22800000e-04  9.04385679e-01  1.22800000e-04  9.22126464e-01 
 1.32800000e-04  9.04594506e-01  1.32800000e-04  9.22311142e-01 
 1.42800000e-04  9.04803742e-01  1.42800000e-04  9.22496035e-01 
 1.52800000e-04  9.05013169e-01  1.52800000e-04  9.22680981e-01 
 1.62800000e-04  9.05222610e-01  1.62800000e-04  9.22865865e-01 
 1.72800000e-04  9.05431939e-01  1.72800000e-04  9.23050611e-01 
 1.82800000e-04  9.05641125e-01  1.82800000e-04  9.23235165e-01 
 1.92800000e-04  9.05850068e-01  1.92800000e-04  9.23419490e-01 
 2.02800000e-04  9.06058703e-01  2.02800000e-04  9.23603560e-01 
 2.12800000e-04  9.06267048e-01  2.12800000e-04  9.23787357e-01 
 2.22800000e-04  9.06475068e-01  2.22800000e-04  9.23970869e-01 
 2.32800000e-04  9.06682772e-01  2.32800000e-04  9.24154086e-01 
 2.42800000e-04  9.06890154e-01  2.42800000e-04  9.24337002e-01 
 2.52800000e-04  9.07097143e-01  2.52800000e-04  9.24519613e-01 
 2.62800000e-04  9.07303740e-01  2.62800000e-04  9.24701915e-01 
 2.72800000e-04  9.07509974e-01  2.72800000e-04  9.24883905e-01 
 2.82800000e-04  9.07715827e-01  2.82800000e-04  9.25065580e-01 
 2.92800000e-04  9.07921321e-01  2.92800000e-04  9.25246941e-01 
 3.02800000e-04  9.08126452e-01  3.02800000e-04  9.25427983e-01 
 3.12800000e-04  9.08331208e-01  3.12800000e-04  9.25608708e-01 
 3.22800000e-04  9.08535579e-01  3.22800000e-04  9.25789112e-01 
 3.32800000e-04  9.08739545e-01  3.32800000e-04  9.25969196e-01 
 3.42800000e-04  9.08943130e-01  3.42800000e-04  9.26148958e-01 
 3.52800000e-04  9.09146333e-01  3.52800000e-04  9.26328398e-01 
 3.62800000e-04  9.09349168e-01  3.62800000e-04  9.26507513e-01 
 3.72800000e-04  9.09551613e-01  3.72800000e-04  9.26686305e-01 
 3.82800000e-04  9.09753665e-01  3.82800000e-04  9.26864770e-01 
 3.92800000e-04  9.09955337e-01  3.92800000e-04  9.27042910e-01 
 4.02800000e-04  9.10156630e-01  4.02800000e-04  9.27220722e-01 
 4.12800000e-04  9.10357536e-01  4.12800000e-04  9.27398206e-01 
 4.22800000e-04  9.10558041e-01  4.22800000e-04  9.27575361e-01 
 4.32800000e-04  9.10758155e-01  4.32800000e-04  9.27752187e-01 
 4.42800000e-04  9.10957872e-01  4.42800000e-04  9.27928682e-01 
 4.52800000e-04  9.11157208e-01  4.52800000e-04  9.28104846e-01 
 4.62800000e-04  9.11356153e-01  4.62800000e-04  9.28280678e-01 
 4.72800000e-04  9.11554690e-01  4.72800000e-04  9.28456177e-01 
 4.82800000e-04  9.11752821e-01  4.82800000e-04  9.28631342e-01 
 4.92800000e-04  9.11950549e-01  4.92800000e-04  9.28806173e-01 
 5.02800000e-04  9.12147862e-01  5.02800000e-04  9.28980668e-01 
 5.12800000e-04  9.12344757e-01  5.12800000e-04  9.29154828e-01 
 5.22800000e-04  9.12541284e-01  5.22800000e-04  9.29328651e-01 
 5.32800000e-04  9.12737449e-01  5.32800000e-04  9.29502136e-01 
 5.42800000e-04  9.12933208e-01  5.42800000e-04  9.29675283e-01 
 5.52800000e-04  9.13128558e-01  5.52800000e-04  9.29848091e-01 
 5.62800000e-04  9.13323501e-01  5.62800000e-04  9.30020560e-01 
 5.72800000e-04  9.13518029e-01  5.72800000e-04  9.30192689e-01 
 5.82800000e-04  9.13712147e-01  5.82800000e-04  9.30364476e-01 
 5.92800000e-04  9.13905843e-01  5.92800000e-04  9.30535921e-01 
 6.02800000e-04  9.14099147e-01  6.02800000e-04  9.30707025e-01 
 6.12800000e-04  9.14292059e-01  6.12800000e-04  9.30877785e-01 
 6.22800000e-04  9.14484557e-01  6.22800000e-04  9.31048201e-01 
 6.32800000e-04  9.14676626e-01  6.32800000e-04  9.31218273e-01 
 6.42800000e-04  9.14868294e-01  6.42800000e-04  9.31387999e-01 
 6.52800000e-04  9.15059574e-01  6.52800000e-04  9.31557380e-01 
 6.62800000e-04  9.15250454e-01  6.62800000e-04  9.31726415e-01 
 6.72800000e-04  9.15440895e-01  6.72800000e-04  9.31895102e-01 
 6.82800000e-04  9.15630894e-01  6.82800000e-04  9.32063442e-01 
 6.92800000e-04  9.15820508e-01  6.92800000e-04  9.32231434e-01 
 7.02800000e-04  9.16009728e-01  7.02800000e-04  9.32399076e-01 
 7.12800000e-04  9.16198536e-01  7.12800000e-04  9.32566369e-01 
 7.22800000e-04  9.16386917e-01  7.22800000e-04  9.32733311e-01 
 7.32800000e-04  9.16574884e-01  7.32800000e-04  9.32899904e-01 
 7.42800000e-04  9.16762443e-01  7.42800000e-04  9.33066144e-01 
 7.52800000e-04  9.16949580e-01  7.52800000e-04  9.33232033e-01 
 7.62800000e-04  9.17136309e-01  7.62800000e-04  9.33397569e-01 
 7.72800000e-04  9.17322616e-01  7.72800000e-04  9.33562752e-01 
 7.82800000e-04  9.17508481e-01  7.82800000e-04  9.33727581e-01 
 7.92800000e-04  9.17693928e-01  7.92800000e-04  9.33892056e-01 
 8.02800000e-04  9.17878981e-01  8.02800000e-04  9.34056176e-01 
 8.12800000e-04  9.18063619e-01  8.12800000e-04  9.34219941e-01 
 8.22800000e-04  9.18247818e-01  8.22800000e-04  9.34383350e-01 
 8.32800000e-04  9.18431613e-01  8.32800000e-04  9.34546403e-01 
 8.42800000e-04  9.18614971e-01  8.42800000e-04  9.34709098e-01 
 8.52800000e-04  9.18797890e-01  8.52800000e-04  9.34871436e-01 
 8.62800000e-04  9.18980394e-01  8.62800000e-04  9.35033416e-01 
 8.72800000e-04  9.19162478e-01  8.72800000e-04  9.35195037e-01 
 8.82800000e-04  9.19344116e-01  8.82800000e-04  9.35356300e-01 
 8.92800000e-04  9.19525323e-01  8.92800000e-04  9.35517202e-01 
 9.02800000e-04  9.19706126e-01  9.02800000e-04  9.35677745e-01 
 9.12800000e-04  9.19886513e-01  9.12800000e-04  9.35837927e-01 
 9.22800000e-04  9.20066486e-01  9.22800000e-04  9.35997748e-01 
 9.32800000e-04  9.20246033e-01  9.32800000e-04  9.36157208e-01 
 9.42800000e-04  9.20425151e-01  9.42800000e-04  9.36316305e-01 
 9.52800000e-04  9.20603833e-01  9.52800000e-04  9.36475040e-01 
 9.62800000e-04  9.20782091e-01  9.62800000e-04  9.36633412e-01 
 9.72800000e-04  9.20959922e-01  9.72800000e-04  9.36791420e-01 
 9.82800000e-04  9.21137338e-01  9.82800000e-04  9.36949065e-01 
 9.92800000e-04  9.21314337e-01  9.92800000e-04  9.37106346e-01 
 1.00280000e-03  9.21490882e-01  1.00280000e-03  9.37263261e-01 
 1.01280000e-03  9.21666981e-01  1.01280000e-03  9.37419811e-01 
 1.02280000e-03  9.21842660e-01  1.02280000e-03  9.37575996e-01 
 1.03280000e-03  9.22017901e-01  1.03280000e-03  9.37731814e-01 
 1.04280000e-03  9.22192708e-01  1.04280000e-03  9.37887266e-01 
 1.05280000e-03  9.22367100e-01  1.05280000e-03  9.38042352e-01 
 1.06280000e-03  9.22541069e-01  1.06280000e-03  9.38197069e-01 
 1.07280000e-03  9.22714597e-01  1.07280000e-03  9.38351419e-01 
 1.08280000e-03  9.22887671e-01  1.08280000e-03  9.38505401e-01 
 1.09280000e-03  9.23060325e-01  1.09280000e-03  9.38659014e-01 
 1.10280000e-03  9.23232565e-01  1.10280000e-03  9.38812258e-01 
 1.11280000e-03  9.23404360e-01  1.11280000e-03  9.38965133e-01 
 1.12280000e-03  9.23575718e-01  1.12280000e-03  9.39117638e-01 
 1.13280000e-03  9.23746642e-01  1.13280000e-03  9.39269773e-01 
 1.14280000e-03  9.23917107e-01  1.14280000e-03  9.39421538e-01 
 1.15280000e-03  9.24087135e-01  1.15280000e-03  9.39572931e-01 
 1.16280000e-03  9.24256765e-01  1.16280000e-03  9.39723954e-01 
 1.17280000e-03  9.24425982e-01  1.17280000e-03  9.39874604e-01 
 1.18280000e-03  9.24594750e-01  1.18280000e-03  9.40024883e-01 
 1.19280000e-03  9.24763064e-01  1.19280000e-03  9.40174789e-01 
 1.20280000e-03  9.24930938e-01  1.20280000e-03  9.40324323e-01 
 1.21280000e-03  9.25098385e-01  1.21280000e-03  9.40473483e-01 
 1.22280000e-03  9.25265408e-01  1.22280000e-03  9.40622270e-01 
 1.23280000e-03  9.25431983e-01  1.23280000e-03  9.40770683e-01 
 1.24280000e-03  9.25598109e-01  1.24280000e-03  9.40918722e-01 
 1.25280000e-03  9.25763781e-01  1.25280000e-03  9.41066387e-01 
 1.26280000e-03  9.25929046e-01  1.26280000e-03  9.41213677e-01 
 1.27280000e-03  9.26093876e-01  1.27280000e-03  9.41360592e-01 
 1.28280000e-03  9.26258231e-01  1.28280000e-03  9.41507132e-01 
 1.29280000e-03  9.26422151e-01  1.29280000e-03  9.41653296e-01 
 1.30280000e-03  9.26585664e-01  1.30280000e-03  9.41799084e-01 
 1.31280000e-03  9.26748751e-01  1.31280000e-03  9.41944495e-01 
 1.32280000e-03  9.26911387e-01  1.32280000e-03  9.42089530e-01 
 1.33280000e-03  9.27073563e-01  1.33280000e-03  9.42234188e-01 
 1.34280000e-03  9.27235278e-01  1.34280000e-03  9.42378469e-01 
 1.35280000e-03  9.27396554e-01  1.35280000e-03  9.42522372e-01 
 1.36280000e-03  9.27557395e-01  1.36280000e-03  9.42665897e-01 
 1.37280000e-03  9.27717820e-01  1.37280000e-03  9.42809045e-01 
 1.38280000e-03  9.27877817e-01  1.38280000e-03  9.42951813e-01 
 1.39280000e-03  9.28037356e-01  1.39280000e-03  9.43094204e-01 
 1.40280000e-03  9.28196443e-01  1.40280000e-03  9.43236215e-01 
 1.41280000e-03  9.28355100e-01  1.41280000e-03  9.43377847e-01 
 1.42280000e-03  9.28513317e-01  1.42280000e-03  9.43519100e-01 
 1.43280000e-03  9.28671098e-01  1.43280000e-03  9.43659973e-01 
 1.44280000e-03  9.28828442e-01  1.44280000e-03  9.43800465e-01 
 1.45280000e-03  9.28985333e-01  1.45280000e-03  9.43940578e-01 
 1.46280000e-03  9.29141788e-01  1.46280000e-03  9.44080310e-01 
 1.47280000e-03  9.29297796e-01  1.47280000e-03  9.44219661e-01 
 1.48280000e-03  9.29453342e-01  1.48280000e-03  9.44358631e-01 
 1.49280000e-03  9.29608421e-01  1.49280000e-03  9.44497220e-01 
 1.50280000e-03  9.29763072e-01  1.50280000e-03  9.44635428e-01 
 1.51280000e-03  9.29917324e-01  1.51280000e-03  9.44773254e-01 
 1.52280000e-03  9.30071131e-01  1.52280000e-03  9.44910697e-01 
 1.53280000e-03  9.30224469e-01  1.53280000e-03  9.45047759e-01 
 1.54280000e-03  9.30377383e-01  1.54280000e-03  9.45184438e-01 
 1.55280000e-03  9.30529859e-01  1.55280000e-03  9.45320734e-01 
 1.56280000e-03  9.30681866e-01  1.56280000e-03  9.45456648e-01 
 1.57280000e-03  9.30833418e-01  1.57280000e-03  9.45592178e-01 
 1.58280000e-03  9.30984538e-01  1.58280000e-03  9.45727326e-01 
 1.59280000e-03  9.31135222e-01  1.59280000e-03  9.45862089e-01 
 1.60280000e-03  9.31285450e-01  1.60280000e-03  9.45996469e-01 
 1.61280000e-03  9.31435233e-01  1.61280000e-03  9.46130465e-01 
 1.62280000e-03  9.31584563e-01  1.62280000e-03  9.46264076e-01 
 1.63280000e-03  9.31733447e-01  1.63280000e-03  9.46397304e-01 
 1.64280000e-03  9.31881884e-01  1.64280000e-03  9.46530146e-01 
 1.65280000e-03  9.32029886e-01  1.65280000e-03  9.46662604e-01 
 1.66280000e-03  9.32177435e-01  1.66280000e-03  9.46794677e-01 
 1.67280000e-03  9.32324539e-01  1.67280000e-03  9.46926365e-01 
 1.68280000e-03  9.32471230e-01  1.68280000e-03  9.47057668e-01 
 1.69280000e-03  9.32617489e-01  1.69280000e-03  9.47188585e-01 
 1.70280000e-03  9.32763312e-01  1.70280000e-03  9.47319116e-01 
 1.71280000e-03  9.32908666e-01  1.71280000e-03  9.47449261e-01 
 1.72280000e-03  9.33053561e-01  1.72280000e-03  9.47579021e-01 
 1.73280000e-03  9.33198014e-01  1.73280000e-03  9.47708394e-01 
 1.74280000e-03  9.33342029e-01  1.74280000e-03  9.47837380e-01 
 1.75280000e-03  9.33485579e-01  1.75280000e-03  9.47965980e-01 
 1.76280000e-03  9.33628669e-01  1.76280000e-03  9.48094194e-01 
 1.77280000e-03  9.33771337e-01  1.77280000e-03  9.48222020e-01 
 1.78280000e-03  9.33913568e-01  1.78280000e-03  9.48349460e-01 
 1.79280000e-03  9.34055349e-01  1.79280000e-03  9.48476512e-01 
 1.80280000e-03  9.34196669e-01  1.80280000e-03  9.48603176e-01 
 1.81280000e-03  9.34337543e-01  1.81280000e-03  9.48729454e-01 
 1.82280000e-03  9.34477970e-01  1.82280000e-03  9.48855343e-01 
 1.83280000e-03  9.34617957e-01  1.83280000e-03  9.48980845e-01 
 1.84280000e-03  9.34757505e-01  1.84280000e-03  9.49105958e-01 
 1.85280000e-03  9.34896612e-01  1.85280000e-03  9.49230683e-01 
 1.86280000e-03  9.35035262e-01  1.86280000e-03  9.49355021e-01 
 1.87280000e-03  9.35173446e-01  1.87280000e-03  9.49478969e-01 
 1.88280000e-03  9.35311220e-01  1.88280000e-03  9.49602529e-01 
 1.89280000e-03  9.35448540e-01  1.89280000e-03  9.49725701e-01 
 1.90280000e-03  9.35585402e-01  1.90280000e-03  9.49848483e-01 
 1.91280000e-03  9.35721822e-01  1.91280000e-03  9.49970877e-01 
 1.92280000e-03  9.35857779e-01  1.92280000e-03  9.50092881e-01 
 1.93280000e-03  9.35993297e-01  1.93280000e-03  9.50214496e-01 
 1.94280000e-03  9.36128375e-01  1.94280000e-03  9.50335722e-01 
 1.95280000e-03  9.36263029e-01  1.95280000e-03  9.50456558e-01 
 1.96280000e-03  9.36397230e-01  1.96280000e-03  9.50577005e-01 
 1.97280000e-03  9.36530974e-01  1.97280000e-03  9.50697061e-01 
 1.98280000e-03  9.36664271e-01  1.98280000e-03  9.50816729e-01 
 1.99280000e-03  9.36797119e-01  1.99280000e-03  9.50936006e-01 
 2.00280000e-03  9.36929525e-01  2.00280000e-03  9.51054892e-01 
 2.01280000e-03  9.37061477e-01  2.01280000e-03  9.51173389e-01 
 2.02280000e-03  9.37192971e-01  2.02280000e-03  9.51291495e-01 
 2.03280000e-03  9.37324020e-01  2.03280000e-03  9.51409211e-01 
 2.04280000e-03  9.37454642e-01  2.04280000e-03  9.51526537e-01 
 2.05280000e-03  9.37584800e-01  2.05280000e-03  9.51643471e-01 
 2.06280000e-03  9.37714489e-01  2.06280000e-03  9.51760015e-01 
 2.07280000e-03  9.37843767e-01  2.07280000e-03  9.51876168e-01 
 2.08280000e-03  9.37972605e-01  2.08280000e-03  9.51991930e-01 
 2.09280000e-03  9.38100973e-01  2.09280000e-03  9.52107301e-01 
 2.10280000e-03  9.38228902e-01  2.10280000e-03  9.52222281e-01 
 2.11280000e-03  9.38356383e-01  2.11280000e-03  9.52336870e-01 
 2.12280000e-03  9.38483405e-01  2.12280000e-03  9.52451067e-01 
 2.13280000e-03  9.38609978e-01  2.13280000e-03  9.52564873e-01 
 2.14280000e-03  9.38736127e-01  2.14280000e-03  9.52678288e-01 
 2.15280000e-03  9.38861832e-01  2.15280000e-03  9.52791310e-01 
 2.16280000e-03  9.38987078e-01  2.16280000e-03  9.52903941e-01 
 2.17280000e-03  9.39111876e-01  2.17280000e-03  9.53016181e-01 
 2.18280000e-03  9.39236250e-01  2.18280000e-03  9.53128028e-01 
 2.19280000e-03  9.39360167e-01  2.19280000e-03  9.53239483e-01 
 2.20280000e-03  9.39483618e-01  2.20280000e-03  9.53350547e-01 
 2.21280000e-03  9.39606637e-01  2.21280000e-03  9.53461218e-01 
 2.22280000e-03  9.39729194e-01  2.22280000e-03  9.53571497e-01 
 2.23280000e-03  9.39851293e-01  2.23280000e-03  9.53681384e-01 
 2.24280000e-03  9.39972949e-01  2.24280000e-03  9.53790878e-01 
 2.25280000e-03  9.40094175e-01  2.25280000e-03  9.53899980e-01 
 2.26280000e-03  9.40214974e-01  2.26280000e-03  9.54008690e-01 
 2.27280000e-03  9.40335320e-01  2.27280000e-03  9.54117006e-01 
 2.28280000e-03  9.40455213e-01  2.28280000e-03  9.54224931e-01 
 2.29280000e-03  9.40574664e-01  2.29280000e-03  9.54332462e-01 
 2.30280000e-03  9.40693669e-01  2.30280000e-03  9.54439601e-01 
 2.31280000e-03  9.40812215e-01  2.31280000e-03  9.54546347e-01 
 2.32280000e-03  9.40930307e-01  2.32280000e-03  9.54652700e-01 
 2.33280000e-03  9.41047956e-01  2.33280000e-03  9.54758660e-01 
 2.34280000e-03  9.41165152e-01  2.34280000e-03  9.54864228e-01 
 2.35280000e-03  9.41281930e-01  2.35280000e-03  9.54969401e-01 
 2.36280000e-03  9.41398281e-01  2.36280000e-03  9.55074182e-01 
 2.37280000e-03  9.41514169e-01  2.37280000e-03  9.55178570e-01 
 2.38280000e-03  9.41629611e-01  2.38280000e-03  9.55282564e-01 
 2.39280000e-03  9.41744592e-01  2.39280000e-03  9.55386166e-01 
 2.40280000e-03  9.41859114e-01  2.40280000e-03  9.55489373e-01 
 2.41280000e-03  9.41973203e-01  2.41280000e-03  9.55592188e-01 
 2.42280000e-03  9.42086850e-01  2.42280000e-03  9.55694609e-01 
 2.43280000e-03  9.42200039e-01  2.43280000e-03  9.55796636e-01 
 2.44280000e-03  9.42312807e-01  2.44280000e-03  9.55898269e-01 
 2.45280000e-03  9.42425122e-01  2.45280000e-03  9.55999509e-01 
 2.46280000e-03  9.42536968e-01  2.46280000e-03  9.56100356e-01 
 2.47280000e-03  9.42648380e-01  2.47280000e-03  9.56200809e-01 
 2.48280000e-03  9.42759346e-01  2.48280000e-03  9.56300868e-01 
 2.49280000e-03  9.42869851e-01  2.49280000e-03  9.56400533e-01 
 2.50280000e-03  9.42979920e-01  2.50280000e-03  9.56499804e-01 
 2.51280000e-03  9.43089562e-01  2.51280000e-03  9.56598682e-01 
 2.52280000e-03  9.43198765e-01  2.52280000e-03  9.56697165e-01 
 2.53280000e-03  9.43307522e-01  2.53280000e-03  9.56795255e-01 
 2.54280000e-03  9.43415812e-01  2.54280000e-03  9.56892951e-01 
 2.55280000e-03  9.43523647e-01  2.55280000e-03  9.56990252e-01 
 2.56280000e-03  9.43631056e-01  2.56280000e-03  9.57087160e-01 
 2.57280000e-03  9.43738027e-01  2.57280000e-03  9.57183673e-01 
 2.58280000e-03  9.43844530e-01  2.58280000e-03  9.57279792e-01 
 2.59280000e-03  9.43950581e-01  2.59280000e-03  9.57375517e-01 
 2.60280000e-03  9.44056203e-01  2.60280000e-03  9.57470848e-01 
 2.61280000e-03  9.44161379e-01  2.61280000e-03  9.57565785e-01 
 2.62280000e-03  9.44266108e-01  2.62280000e-03  9.57660327e-01 
 2.63280000e-03  9.44370406e-01  2.63280000e-03  9.57754475e-01 
 2.64280000e-03  9.44474262e-01  2.64280000e-03  9.57848229e-01 
 2.65280000e-03  9.44577675e-01  2.65280000e-03  9.57941588e-01 
 2.66280000e-03  9.44680646e-01  2.66280000e-03  9.58034553e-01 
 2.67280000e-03  9.44783147e-01  2.67280000e-03  9.58127123e-01 
 2.68280000e-03  9.44885216e-01  2.68280000e-03  9.58219300e-01 
 2.69280000e-03  9.44986837e-01  2.69280000e-03  9.58311081e-01 
 2.70280000e-03  9.45088001e-01  2.70280000e-03  9.58402468e-01 
 2.71280000e-03  9.45188734e-01  2.71280000e-03  9.58493461e-01 
 2.72280000e-03  9.45289035e-01  2.72280000e-03  9.58584059e-01 
 2.73280000e-03  9.45388927e-01  2.73280000e-03  9.58674263e-01 
 2.74280000e-03  9.45488362e-01  2.74280000e-03  9.58764072e-01 
 2.75280000e-03  9.45587326e-01  2.75280000e-03  9.58853486e-01 
 2.76280000e-03  9.45685824e-01  2.76280000e-03  9.58942506e-01 
 2.77280000e-03  9.45783900e-01  2.77280000e-03  9.59031131e-01 
 2.78280000e-03  9.45881538e-01  2.78280000e-03  9.59119361e-01 
 2.79280000e-03  9.45978689e-01  2.79280000e-03  9.59207197e-01 
 2.80280000e-03  9.46075406e-01  2.80280000e-03  9.59294638e-01 
 2.81280000e-03  9.46171701e-01  2.81280000e-03  9.59381685e-01 
 2.82280000e-03  9.46267556e-01  2.82280000e-03  9.59468337e-01 
 2.83280000e-03  9.46362973e-01  2.83280000e-03  9.59554593e-01 
 2.84280000e-03  9.46457962e-01  2.84280000e-03  9.59640456e-01 
 2.85280000e-03  9.46552490e-01  2.85280000e-03  9.59725923e-01 
 2.86280000e-03  9.46646582e-01  2.86280000e-03  9.59810996e-01 
 2.87280000e-03  9.46740242e-01  2.87280000e-03  9.59895674e-01 
 2.88280000e-03  9.46833438e-01  2.88280000e-03  9.59979957e-01 
 2.89280000e-03  9.46926186e-01  2.89280000e-03  9.60063846e-01 
 2.90280000e-03  9.47018481e-01  2.90280000e-03  9.60147339e-01 
 2.91280000e-03  9.47110350e-01  2.91280000e-03  9.60230438e-01 
 2.92280000e-03  9.47201801e-01  2.92280000e-03  9.60313142e-01 
 2.93280000e-03  9.47292789e-01  2.93280000e-03  9.60395451e-01 
 2.94280000e-03  9.47383318e-01  2.94280000e-03  9.60477365e-01 
 2.95280000e-03  9.47473438e-01  2.95280000e-03  9.60558884e-01 
 2.96280000e-03  9.47563123e-01  2.96280000e-03  9.60640009e-01 
 2.97280000e-03  9.47652339e-01  2.97280000e-03  9.60720739e-01 
 2.98280000e-03  9.47741115e-01  2.98280000e-03  9.60801073e-01 
