 frequency       db(v(out))      frequency       db(v(outpl))    frequency       db(v(outdrl))   frequency       db(v(outdrlpl)) frequency       ph(v(outdrl))   frequency       ph(v(outdrlpl))
 1.00000000e-02  4.06486933e+01  1.00000000e-02  4.04462304e+01  1.00000000e-02 -1.18687539e+00  1.00000000e-02 -7.58071262e-01  1.00000000e-02  3.14159262e+00  1.00000000e-02  3.14159260e+00 
 1.02329299e-02  4.06486933e+01  1.02329299e-02  4.04462304e+01  1.02329299e-02 -1.18687539e+00  1.02329299e-02 -7.58071262e-01  1.02329299e-02  3.14159262e+00  1.02329299e-02  3.14159259e+00 
 1.04712855e-02  4.06486933e+01  1.04712855e-02  4.04462304e+01  1.04712855e-02 -1.18687539e+00  1.04712855e-02 -7.58071262e-01  1.04712855e-02  3.14159262e+00  1.04712855e-02  3.14159259e+00 
 1.07151931e-02  4.06486933e+01  1.07151931e-02  4.04462304e+01  1.07151931e-02 -1.18687539e+00  1.07151931e-02 -7.58071262e-01  1.07151931e-02  3.14159262e+00  1.07151931e-02  3.14159259e+00 
 1.09647820e-02  4.06486933e+01  1.09647820e-02  4.04462304e+01  1.09647820e-02 -1.18687539e+00  1.09647820e-02 -7.58071262e-01  1.09647820e-02  3.14159262e+00  1.09647820e-02  3.14159259e+00 
 1.12201845e-02  4.06486933e+01  1.12201845e-02  4.04462304e+01  1.12201845e-02 -1.18687539e+00  1.12201845e-02 -7.58071262e-01  1.12201845e-02  3.14159262e+00  1.12201845e-02  3.14159259e+00 
 1.14815362e-02  4.06486933e+01  1.14815362e-02  4.04462304e+01  1.14815362e-02 -1.18687539e+00  1.14815362e-02 -7.58071262e-01  1.14815362e-02  3.14159262e+00  1.14815362e-02  3.14159259e+00 
 1.17489755e-02  4.06486933e+01  1.17489755e-02  4.04462304e+01  1.17489755e-02 -1.18687539e+00  1.17489755e-02 -7.58071262e-01  1.17489755e-02  3.14159262e+00  1.17489755e-02  3.14159259e+00 
 1.20226443e-02  4.06486933e+01  1.20226443e-02  4.04462304e+01  1.20226443e-02 -1.18687539e+00  1.20226443e-02 -7.58071262e-01  1.20226443e-02  3.14159262e+00  1.20226443e-02  3.14159258e+00 
 1.23026877e-02  4.06486933e+01  1.23026877e-02  4.04462304e+01  1.23026877e-02 -1.18687539e+00  1.23026877e-02 -7.58071262e-01  1.23026877e-02  3.14159262e+00  1.23026877e-02  3.14159258e+00 
 1.25892541e-02  4.06486933e+01  1.25892541e-02  4.04462304e+01  1.25892541e-02 -1.18687539e+00  1.25892541e-02 -7.58071262e-01  1.25892541e-02  3.14159261e+00  1.25892541e-02  3.14159258e+00 
 1.28824955e-02  4.06486933e+01  1.28824955e-02  4.04462304e+01  1.28824955e-02 -1.18687539e+00  1.28824955e-02 -7.58071262e-01  1.28824955e-02  3.14159261e+00  1.28824955e-02  3.14159258e+00 
 1.31825674e-02  4.06486933e+01  1.31825674e-02  4.04462304e+01  1.31825674e-02 -1.18687539e+00  1.31825674e-02 -7.58071262e-01  1.31825674e-02  3.14159261e+00  1.31825674e-02  3.14159258e+00 
 1.34896288e-02  4.06486933e+01  1.34896288e-02  4.04462304e+01  1.34896288e-02 -1.18687539e+00  1.34896288e-02 -7.58071262e-01  1.34896288e-02  3.14159261e+00  1.34896288e-02  3.14159258e+00 
 1.38038426e-02  4.06486933e+01  1.38038426e-02  4.04462304e+01  1.38038426e-02 -1.18687539e+00  1.38038426e-02 -7.58071262e-01  1.38038426e-02  3.14159261e+00  1.38038426e-02  3.14159257e+00 
 1.41253754e-02  4.06486933e+01  1.41253754e-02  4.04462304e+01  1.41253754e-02 -1.18687539e+00  1.41253754e-02 -7.58071262e-01  1.41253754e-02  3.14159261e+00  1.41253754e-02  3.14159257e+00 
 1.44543977e-02  4.06486933e+01  1.44543977e-02  4.04462304e+01  1.44543977e-02 -1.18687539e+00  1.44543977e-02 -7.58071262e-01  1.44543977e-02  3.14159261e+00  1.44543977e-02  3.14159257e+00 
 1.47910839e-02  4.06486933e+01  1.47910839e-02  4.04462304e+01  1.47910839e-02 -1.18687539e+00  1.47910839e-02 -7.58071262e-01  1.47910839e-02  3.14159261e+00  1.47910839e-02  3.14159257e+00 
 1.51356125e-02  4.06486933e+01  1.51356125e-02  4.04462304e+01  1.51356125e-02 -1.18687539e+00  1.51356125e-02 -7.58071262e-01  1.51356125e-02  3.14159261e+00  1.51356125e-02  3.14159257e+00 
 1.54881662e-02  4.06486933e+01  1.54881662e-02  4.04462304e+01  1.54881662e-02 -1.18687539e+00  1.54881662e-02 -7.58071262e-01  1.54881662e-02  3.14159261e+00  1.54881662e-02  3.14159256e+00 
 1.58489319e-02  4.06486933e+01  1.58489319e-02  4.04462304e+01  1.58489319e-02 -1.18687539e+00  1.58489319e-02 -7.58071262e-01  1.58489319e-02  3.14159260e+00  1.58489319e-02  3.14159256e+00 
 1.62181010e-02  4.06486933e+01  1.62181010e-02  4.04462304e+01  1.62181010e-02 -1.18687539e+00  1.62181010e-02 -7.58071262e-01  1.62181010e-02  3.14159260e+00  1.62181010e-02  3.14159256e+00 
 1.65958691e-02  4.06486933e+01  1.65958691e-02  4.04462304e+01  1.65958691e-02 -1.18687539e+00  1.65958691e-02 -7.58071262e-01  1.65958691e-02  3.14159260e+00  1.65958691e-02  3.14159256e+00 
 1.69824365e-02  4.06486933e+01  1.69824365e-02  4.04462304e+01  1.69824365e-02 -1.18687539e+00  1.69824365e-02 -7.58071262e-01  1.69824365e-02  3.14159260e+00  1.69824365e-02  3.14159256e+00 
 1.73780083e-02  4.06486933e+01  1.73780083e-02  4.04462304e+01  1.73780083e-02 -1.18687539e+00  1.73780083e-02 -7.58071262e-01  1.73780083e-02  3.14159260e+00  1.73780083e-02  3.14159255e+00 
 1.77827941e-02  4.06486933e+01  1.77827941e-02  4.04462304e+01  1.77827941e-02 -1.18687539e+00  1.77827941e-02 -7.58071262e-01  1.77827941e-02  3.14159260e+00  1.77827941e-02  3.14159255e+00 
 1.81970086e-02  4.06486933e+01  1.81970086e-02  4.04462304e+01  1.81970086e-02 -1.18687539e+00  1.81970086e-02 -7.58071262e-01  1.81970086e-02  3.14159260e+00  1.81970086e-02  3.14159255e+00 
 1.86208714e-02  4.06486933e+01  1.86208714e-02  4.04462304e+01  1.86208714e-02 -1.18687539e+00  1.86208714e-02 -7.58071262e-01  1.86208714e-02  3.14159260e+00  1.86208714e-02  3.14159255e+00 
 1.90546072e-02  4.06486933e+01  1.90546072e-02  4.04462304e+01  1.90546072e-02 -1.18687539e+00  1.90546072e-02 -7.58071262e-01  1.90546072e-02  3.14159259e+00  1.90546072e-02  3.14159254e+00 
 1.94984460e-02  4.06486933e+01  1.94984460e-02  4.04462304e+01  1.94984460e-02 -1.18687539e+00  1.94984460e-02 -7.58071262e-01  1.94984460e-02  3.14159259e+00  1.94984460e-02  3.14159254e+00 
 1.99526231e-02  4.06486933e+01  1.99526231e-02  4.04462304e+01  1.99526231e-02 -1.18687539e+00  1.99526231e-02 -7.58071262e-01  1.99526231e-02  3.14159259e+00  1.99526231e-02  3.14159254e+00 
 2.04173794e-02  4.06486933e+01  2.04173794e-02  4.04462304e+01  2.04173794e-02 -1.18687539e+00  2.04173794e-02 -7.58071262e-01  2.04173794e-02  3.14159259e+00  2.04173794e-02  3.14159254e+00 
 2.08929613e-02  4.06486933e+01  2.08929613e-02  4.04462304e+01  2.08929613e-02 -1.18687539e+00  2.08929613e-02 -7.58071262e-01  2.08929613e-02  3.14159259e+00  2.08929613e-02  3.14159253e+00 
 2.13796209e-02  4.06486933e+01  2.13796209e-02  4.04462304e+01  2.13796209e-02 -1.18687539e+00  2.13796209e-02 -7.58071262e-01  2.13796209e-02  3.14159259e+00  2.13796209e-02  3.14159253e+00 
 2.18776162e-02  4.06486933e+01  2.18776162e-02  4.04462304e+01  2.18776162e-02 -1.18687539e+00  2.18776162e-02 -7.58071262e-01  2.18776162e-02  3.14159259e+00  2.18776162e-02  3.14159253e+00 
 2.23872114e-02  4.06486933e+01  2.23872114e-02  4.04462304e+01  2.23872114e-02 -1.18687539e+00  2.23872114e-02 -7.58071262e-01  2.23872114e-02  3.14159258e+00  2.23872114e-02  3.14159252e+00 
 2.29086765e-02  4.06486933e+01  2.29086765e-02  4.04462304e+01  2.29086765e-02 -1.18687539e+00  2.29086765e-02 -7.58071262e-01  2.29086765e-02  3.14159258e+00  2.29086765e-02  3.14159252e+00 
 2.34422882e-02  4.06486933e+01  2.34422882e-02  4.04462304e+01  2.34422882e-02 -1.18687539e+00  2.34422882e-02 -7.58071262e-01  2.34422882e-02  3.14159258e+00  2.34422882e-02  3.14159252e+00 
 2.39883292e-02  4.06486933e+01  2.39883292e-02  4.04462304e+01  2.39883292e-02 -1.18687539e+00  2.39883292e-02 -7.58071262e-01  2.39883292e-02  3.14159258e+00  2.39883292e-02  3.14159252e+00 
 2.45470892e-02  4.06486933e+01  2.45470892e-02  4.04462304e+01  2.45470892e-02 -1.18687539e+00  2.45470892e-02 -7.58071262e-01  2.45470892e-02  3.14159258e+00  2.45470892e-02  3.14159251e+00 
 2.51188643e-02  4.06486933e+01  2.51188643e-02  4.04462304e+01  2.51188643e-02 -1.18687539e+00  2.51188643e-02 -7.58071262e-01  2.51188643e-02  3.14159258e+00  2.51188643e-02  3.14159251e+00 
 2.57039578e-02  4.06486933e+01  2.57039578e-02  4.04462304e+01  2.57039578e-02 -1.18687539e+00  2.57039578e-02 -7.58071262e-01  2.57039578e-02  3.14159257e+00  2.57039578e-02  3.14159251e+00 
 2.63026799e-02  4.06486933e+01  2.63026799e-02  4.04462304e+01  2.63026799e-02 -1.18687539e+00  2.63026799e-02 -7.58071262e-01  2.63026799e-02  3.14159257e+00  2.63026799e-02  3.14159250e+00 
 2.69153480e-02  4.06486933e+01  2.69153480e-02  4.04462304e+01  2.69153480e-02 -1.18687539e+00  2.69153480e-02 -7.58071262e-01  2.69153480e-02  3.14159257e+00  2.69153480e-02  3.14159250e+00 
 2.75422870e-02  4.06486933e+01  2.75422870e-02  4.04462304e+01  2.75422870e-02 -1.18687539e+00  2.75422870e-02 -7.58071262e-01  2.75422870e-02  3.14159257e+00  2.75422870e-02  3.14159249e+00 
 2.81838293e-02  4.06486933e+01  2.81838293e-02  4.04462304e+01  2.81838293e-02 -1.18687539e+00  2.81838293e-02 -7.58071262e-01  2.81838293e-02  3.14159257e+00  2.81838293e-02  3.14159249e+00 
 2.88403150e-02  4.06486933e+01  2.88403150e-02  4.04462304e+01  2.88403150e-02 -1.18687539e+00  2.88403150e-02 -7.58071262e-01  2.88403150e-02  3.14159256e+00  2.88403150e-02  3.14159249e+00 
 2.95120923e-02  4.06486933e+01  2.95120923e-02  4.04462304e+01  2.95120923e-02 -1.18687539e+00  2.95120923e-02 -7.58071262e-01  2.95120923e-02  3.14159256e+00  2.95120923e-02  3.14159248e+00 
 3.01995172e-02  4.06486933e+01  3.01995172e-02  4.04462304e+01  3.01995172e-02 -1.18687539e+00  3.01995172e-02 -7.58071262e-01  3.01995172e-02  3.14159256e+00  3.01995172e-02  3.14159248e+00 
 3.09029543e-02  4.06486933e+01  3.09029543e-02  4.04462304e+01  3.09029543e-02 -1.18687539e+00  3.09029543e-02 -7.58071262e-01  3.09029543e-02  3.14159256e+00  3.09029543e-02  3.14159248e+00 
 3.16227766e-02  4.06486933e+01  3.16227766e-02  4.04462304e+01  3.16227766e-02 -1.18687539e+00  3.16227766e-02 -7.58071262e-01  3.16227766e-02  3.14159256e+00  3.16227766e-02  3.14159247e+00 
 3.23593657e-02  4.06486933e+01  3.23593657e-02  4.04462304e+01  3.23593657e-02 -1.18687539e+00  3.23593657e-02 -7.58071262e-01  3.23593657e-02  3.14159255e+00  3.23593657e-02  3.14159247e+00 
 3.31131121e-02  4.06486933e+01  3.31131121e-02  4.04462304e+01  3.31131121e-02 -1.18687539e+00  3.31131121e-02 -7.58071262e-01  3.31131121e-02  3.14159255e+00  3.31131121e-02  3.14159246e+00 
 3.38844156e-02  4.06486933e+01  3.38844156e-02  4.04462304e+01  3.38844156e-02 -1.18687539e+00  3.38844156e-02 -7.58071262e-01  3.38844156e-02  3.14159255e+00  3.38844156e-02  3.14159246e+00 
 3.46736850e-02  4.06486933e+01  3.46736850e-02  4.04462304e+01  3.46736850e-02 -1.18687539e+00  3.46736850e-02 -7.58071262e-01  3.46736850e-02  3.14159255e+00  3.46736850e-02  3.14159245e+00 
 3.54813389e-02  4.06486933e+01  3.54813389e-02  4.04462304e+01  3.54813389e-02 -1.18687539e+00  3.54813389e-02 -7.58071262e-01  3.54813389e-02  3.14159254e+00  3.54813389e-02  3.14159245e+00 
 3.63078055e-02  4.06486933e+01  3.63078055e-02  4.04462304e+01  3.63078055e-02 -1.18687539e+00  3.63078055e-02 -7.58071262e-01  3.63078055e-02  3.14159254e+00  3.63078055e-02  3.14159244e+00 
 3.71535229e-02  4.06486933e+01  3.71535229e-02  4.04462304e+01  3.71535229e-02 -1.18687539e+00  3.71535229e-02 -7.58071262e-01  3.71535229e-02  3.14159254e+00  3.71535229e-02  3.14159244e+00 
 3.80189396e-02  4.06486933e+01  3.80189396e-02  4.04462304e+01  3.80189396e-02 -1.18687539e+00  3.80189396e-02 -7.58071262e-01  3.80189396e-02  3.14159254e+00  3.80189396e-02  3.14159243e+00 
 3.89045145e-02  4.06486933e+01  3.89045145e-02  4.04462304e+01  3.89045145e-02 -1.18687539e+00  3.89045145e-02 -7.58071262e-01  3.89045145e-02  3.14159253e+00  3.89045145e-02  3.14159243e+00 
 3.98107171e-02  4.06486933e+01  3.98107171e-02  4.04462304e+01  3.98107171e-02 -1.18687539e+00  3.98107171e-02 -7.58071262e-01  3.98107171e-02  3.14159253e+00  3.98107171e-02  3.14159242e+00 
 4.07380278e-02  4.06486933e+01  4.07380278e-02  4.04462304e+01  4.07380278e-02 -1.18687539e+00  4.07380278e-02 -7.58071262e-01  4.07380278e-02  3.14159253e+00  4.07380278e-02  3.14159242e+00 
 4.16869383e-02  4.06486933e+01  4.16869383e-02  4.04462304e+01  4.16869383e-02 -1.18687539e+00  4.16869383e-02 -7.58071262e-01  4.16869383e-02  3.14159252e+00  4.16869383e-02  3.14159241e+00 
 4.26579519e-02  4.06486933e+01  4.26579519e-02  4.04462304e+01  4.26579519e-02 -1.18687539e+00  4.26579519e-02 -7.58071262e-01  4.26579519e-02  3.14159252e+00  4.26579519e-02  3.14159241e+00 
 4.36515832e-02  4.06486933e+01  4.36515832e-02  4.04462304e+01  4.36515832e-02 -1.18687539e+00  4.36515832e-02 -7.58071262e-01  4.36515832e-02  3.14159252e+00  4.36515832e-02  3.14159240e+00 
 4.46683592e-02  4.06486933e+01  4.46683592e-02  4.04462304e+01  4.46683592e-02 -1.18687539e+00  4.46683592e-02 -7.58071262e-01  4.46683592e-02  3.14159252e+00  4.46683592e-02  3.14159240e+00 
 4.57088190e-02  4.06486933e+01  4.57088190e-02  4.04462304e+01  4.57088190e-02 -1.18687539e+00  4.57088190e-02 -7.58071262e-01  4.57088190e-02  3.14159251e+00  4.57088190e-02  3.14159239e+00 
 4.67735141e-02  4.06486933e+01  4.67735141e-02  4.04462304e+01  4.67735141e-02 -1.18687539e+00  4.67735141e-02 -7.58071262e-01  4.67735141e-02  3.14159251e+00  4.67735141e-02  3.14159238e+00 
 4.78630092e-02  4.06486933e+01  4.78630092e-02  4.04462304e+01  4.78630092e-02 -1.18687539e+00  4.78630092e-02 -7.58071262e-01  4.78630092e-02  3.14159251e+00  4.78630092e-02  3.14159238e+00 
 4.89778819e-02  4.06486933e+01  4.89778819e-02  4.04462304e+01  4.89778819e-02 -1.18687539e+00  4.89778819e-02 -7.58071262e-01  4.89778819e-02  3.14159250e+00  4.89778819e-02  3.14159237e+00 
 5.01187234e-02  4.06486933e+01  5.01187234e-02  4.04462304e+01  5.01187234e-02 -1.18687539e+00  5.01187234e-02 -7.58071262e-01  5.01187234e-02  3.14159250e+00  5.01187234e-02  3.14159236e+00 
 5.12861384e-02  4.06486933e+01  5.12861384e-02  4.04462304e+01  5.12861384e-02 -1.18687539e+00  5.12861384e-02 -7.58071262e-01  5.12861384e-02  3.14159249e+00  5.12861384e-02  3.14159236e+00 
 5.24807460e-02  4.06486933e+01  5.24807460e-02  4.04462304e+01  5.24807460e-02 -1.18687539e+00  5.24807460e-02 -7.58071262e-01  5.24807460e-02  3.14159249e+00  5.24807460e-02  3.14159235e+00 
 5.37031796e-02  4.06486933e+01  5.37031796e-02  4.04462304e+01  5.37031796e-02 -1.18687539e+00  5.37031796e-02 -7.58071262e-01  5.37031796e-02  3.14159249e+00  5.37031796e-02  3.14159234e+00 
 5.49540874e-02  4.06486933e+01  5.49540874e-02  4.04462304e+01  5.49540874e-02 -1.18687539e+00  5.49540874e-02 -7.58071262e-01  5.49540874e-02  3.14159248e+00  5.49540874e-02  3.14159234e+00 
 5.62341325e-02  4.06486933e+01  5.62341325e-02  4.04462304e+01  5.62341325e-02 -1.18687539e+00  5.62341325e-02 -7.58071262e-01  5.62341325e-02  3.14159248e+00  5.62341325e-02  3.14159233e+00 
 5.75439937e-02  4.06486933e+01  5.75439937e-02  4.04462304e+01  5.75439937e-02 -1.18687539e+00  5.75439937e-02 -7.58071262e-01  5.75439937e-02  3.14159248e+00  5.75439937e-02  3.14159232e+00 
 5.88843655e-02  4.06486933e+01  5.88843655e-02  4.04462304e+01  5.88843655e-02 -1.18687539e+00  5.88843655e-02 -7.58071262e-01  5.88843655e-02  3.14159247e+00  5.88843655e-02  3.14159231e+00 
 6.02559586e-02  4.06486933e+01  6.02559586e-02  4.04462304e+01  6.02559586e-02 -1.18687539e+00  6.02559586e-02 -7.58071262e-01  6.02559586e-02  3.14159247e+00  6.02559586e-02  3.14159231e+00 
 6.16595002e-02  4.06486933e+01  6.16595002e-02  4.04462304e+01  6.16595002e-02 -1.18687539e+00  6.16595002e-02 -7.58071262e-01  6.16595002e-02  3.14159246e+00  6.16595002e-02  3.14159230e+00 
 6.30957344e-02  4.06486933e+01  6.30957344e-02  4.04462304e+01  6.30957344e-02 -1.18687539e+00  6.30957344e-02 -7.58071262e-01  6.30957344e-02  3.14159246e+00  6.30957344e-02  3.14159229e+00 
 6.45654229e-02  4.06486933e+01  6.45654229e-02  4.04462304e+01  6.45654229e-02 -1.18687539e+00  6.45654229e-02 -7.58071262e-01  6.45654229e-02  3.14159245e+00  6.45654229e-02  3.14159228e+00 
 6.60693448e-02  4.06486933e+01  6.60693448e-02  4.04462304e+01  6.60693448e-02 -1.18687539e+00  6.60693448e-02 -7.58071262e-01  6.60693448e-02  3.14159245e+00  6.60693448e-02  3.14159227e+00 
 6.76082975e-02  4.06486933e+01  6.76082975e-02  4.04462304e+01  6.76082975e-02 -1.18687539e+00  6.76082975e-02 -7.58071262e-01  6.76082975e-02  3.14159244e+00  6.76082975e-02  3.14159226e+00 
 6.91830971e-02  4.06486933e+01  6.91830971e-02  4.04462304e+01  6.91830971e-02 -1.18687539e+00  6.91830971e-02 -7.58071262e-01  6.91830971e-02  3.14159244e+00  6.91830971e-02  3.14159225e+00 
 7.07945784e-02  4.06486933e+01  7.07945784e-02  4.04462304e+01  7.07945784e-02 -1.18687539e+00  7.07945784e-02 -7.58071262e-01  7.07945784e-02  3.14159243e+00  7.07945784e-02  3.14159224e+00 
 7.24435960e-02  4.06486933e+01  7.24435960e-02  4.04462304e+01  7.24435960e-02 -1.18687539e+00  7.24435960e-02 -7.58071262e-01  7.24435960e-02  3.14159243e+00  7.24435960e-02  3.14159224e+00 
 7.41310241e-02  4.06486933e+01  7.41310241e-02  4.04462304e+01  7.41310241e-02 -1.18687539e+00  7.41310241e-02 -7.58071262e-01  7.41310241e-02  3.14159242e+00  7.41310241e-02  3.14159223e+00 
 7.58577575e-02  4.06486933e+01  7.58577575e-02  4.04462304e+01  7.58577575e-02 -1.18687539e+00  7.58577575e-02 -7.58071262e-01  7.58577575e-02  3.14159242e+00  7.58577575e-02  3.14159222e+00 
 7.76247117e-02  4.06486933e+01  7.76247117e-02  4.04462304e+01  7.76247117e-02 -1.18687539e+00  7.76247117e-02 -7.58071262e-01  7.76247117e-02  3.14159241e+00  7.76247117e-02  3.14159221e+00 
 7.94328235e-02  4.06486933e+01  7.94328235e-02  4.04462304e+01  7.94328235e-02 -1.18687539e+00  7.94328235e-02 -7.58071262e-01  7.94328235e-02  3.14159241e+00  7.94328235e-02  3.14159220e+00 
 8.12830516e-02  4.06486933e+01  8.12830516e-02  4.04462304e+01  8.12830516e-02 -1.18687539e+00  8.12830516e-02 -7.58071262e-01  8.12830516e-02  3.14159240e+00  8.12830516e-02  3.14159218e+00 
 8.31763771e-02  4.06486933e+01  8.31763771e-02  4.04462304e+01  8.31763771e-02 -1.18687539e+00  8.31763771e-02 -7.58071262e-01  8.31763771e-02  3.14159240e+00  8.31763771e-02  3.14159217e+00 
 8.51138038e-02  4.06486933e+01  8.51138038e-02  4.04462304e+01  8.51138038e-02 -1.18687539e+00  8.51138038e-02 -7.58071262e-01  8.51138038e-02  3.14159239e+00  8.51138038e-02  3.14159216e+00 
 8.70963590e-02  4.06486933e+01  8.70963590e-02  4.04462304e+01  8.70963590e-02 -1.18687539e+00  8.70963590e-02 -7.58071262e-01  8.70963590e-02  3.14159238e+00  8.70963590e-02  3.14159215e+00 
 8.91250938e-02  4.06486933e+01  8.91250938e-02  4.04462304e+01  8.91250938e-02 -1.18687539e+00  8.91250938e-02 -7.58071262e-01  8.91250938e-02  3.14159238e+00  8.91250938e-02  3.14159214e+00 
 9.12010839e-02  4.06486933e+01  9.12010839e-02  4.04462304e+01  9.12010839e-02 -1.18687539e+00  9.12010839e-02 -7.58071262e-01  9.12010839e-02  3.14159237e+00  9.12010839e-02  3.14159213e+00 
 9.33254301e-02  4.06486933e+01  9.33254301e-02  4.04462304e+01  9.33254301e-02 -1.18687539e+00  9.33254301e-02 -7.58071262e-01  9.33254301e-02  3.14159236e+00  9.33254301e-02  3.14159211e+00 
 9.54992586e-02  4.06486933e+01  9.54992586e-02  4.04462304e+01  9.54992586e-02 -1.18687539e+00  9.54992586e-02 -7.58071262e-01  9.54992586e-02  3.14159236e+00  9.54992586e-02  3.14159210e+00 
 9.77237221e-02  4.06486933e+01  9.77237221e-02  4.04462304e+01  9.77237221e-02 -1.18687539e+00  9.77237221e-02 -7.58071262e-01  9.77237221e-02  3.14159235e+00  9.77237221e-02  3.14159209e+00 
 1.00000000e-01  4.06486933e+01  1.00000000e-01  4.04462304e+01  1.00000000e-01 -1.18687539e+00  1.00000000e-01 -7.58071262e-01  1.00000000e-01  3.14159234e+00  1.00000000e-01  3.14159208e+00 
 1.02329299e-01  4.06486933e+01  1.02329299e-01  4.04462304e+01  1.02329299e-01 -1.18687539e+00  1.02329299e-01 -7.58071262e-01  1.02329299e-01  3.14159234e+00  1.02329299e-01  3.14159206e+00 
